(1731793463.396302) can_bridge 0D9#2301020304
(1731793463.396368) can_bridge 0D8#2301020304
(1731793463.398754) can_bridge 0D1#CB01E9BD4766
(1731793463.399025) can_bridge 0D0#2B2D293617B7
(1731793463.400926) can_bridge 199#66BF5F479565
(1731793463.401202) can_bridge 198#3F5B50B67F2F
(1731793463.402870) can_bridge 1B9#0001020304
(1731793463.403309) can_bridge 1B8#0001020304
(1731793463.404733) can_bridge 211#00
(1731793463.405126) can_bridge 210#00
(1731793463.406560) can_bridge 219#00
(1731793463.407259) can_bridge 218#00
(1731793463.408298) can_bridge 221#00
(1731793463.409129) can_bridge 220#00
(1731793463.410185) can_bridge 0D9#2301020304
(1731793463.411087) can_bridge 0D8#2301020304
(1731793463.411987) can_bridge 0D1#1788C7E0F0BC
(1731793463.412903) can_bridge 0D0#7686E3D4DEAC
(1731793463.413835) can_bridge 199#398AD8151831
(1731793463.414754) can_bridge 198#0FB3B2C10E7B
(1731793463.415540) can_bridge 1B9#0001020304
(1731793463.416545) can_bridge 1B8#0001020304
(1731793463.417262) can_bridge 211#00
(1731793463.418311) can_bridge 210#00
(1731793463.418992) can_bridge 219#00
(1731793463.420042) can_bridge 218#00
(1731793463.420811) can_bridge 221#00
(1731793463.421912) can_bridge 220#00
(1731793463.422567) can_bridge 0D9#2301020304
(1731793463.424008) can_bridge 0D8#2301020304
(1731793463.425043) can_bridge 0D1#E9986326DDFD
(1731793463.426107) can_bridge 0D0#4B9740E2780C
(1731793463.427080) can_bridge 199#5A69096A2F7A
(1731793463.428931) can_bridge 198#816BFC62E6B9
(1731793463.429460) can_bridge 1B9#0001020304
(1731793463.432267) can_bridge 211#00
(1731793463.432677) can_bridge 1B8#0001020304
(1731793463.435470) can_bridge 210#00
(1731793463.436204) can_bridge 219#00
(1731793463.437281) can_bridge 218#00
(1731793463.438236) can_bridge 221#00
(1731793463.439167) can_bridge 220#00
(1731793463.440036) can_bridge 0D9#2301020304
(1731793463.441016) can_bridge 0D8#2301020304
(1731793463.441917) can_bridge 0D1#510434F68702
(1731793463.442899) can_bridge 0D0#97C09933783F
(1731793463.443771) can_bridge 199#C8F423D7B588
(1731793463.444791) can_bridge 198#15293BC81000
(1731793463.445653) can_bridge 1B9#0001020304
(1731793463.446693) can_bridge 1B8#0001020304
(1731793463.448881) can_bridge 211#00
(1731793463.449948) can_bridge 210#00
(1731793463.450998) can_bridge 219#00
(1731793463.452046) can_bridge 218#00
(1731793463.453226) can_bridge 221#00
(1731793463.454367) can_bridge 220#00
(1731793463.455989) can_bridge 0D9#2301020304
(1731793463.457197) can_bridge 0D8#2301020304
(1731793463.458602) can_bridge 0D1#6FEADBDEF563
(1731793463.459594) can_bridge 0D0#E7A475C25042
(1731793463.461480) can_bridge 199#4F76292F542F
(1731793463.462886) can_bridge 198#B1FCEE0367FD
(1731793463.464686) can_bridge 1B9#0001020304
(1731793463.466262) can_bridge 1B8#0001020304
(1731793463.469342) can_bridge 211#00
(1731793463.470372) can_bridge 210#00
(1731793463.471538) can_bridge 219#00
(1731793463.472734) can_bridge 218#00
(1731793463.473978) can_bridge 221#00
(1731793463.475123) can_bridge 220#00
(1731793463.476306) can_bridge 0D9#2301020304
(1731793463.477575) can_bridge 0D8#2301020304
(1731793463.478758) can_bridge 0D1#4BB1DA4DFE5C
(1731793463.480060) can_bridge 0D0#6C17D0383E74
(1731793463.481087) can_bridge 199#573F364905D8
(1731793463.482134) can_bridge 198#D731180FB30A
(1731793463.482979) can_bridge 1B9#0001020304
(1731793463.484054) can_bridge 1B8#0001020304
(1731793463.484921) can_bridge 211#00
(1731793463.486008) can_bridge 210#00
(1731793463.486664) can_bridge 219#00
(1731793463.488860) can_bridge 221#00
(1731793463.489905) can_bridge 218#00
(1731793463.491015) can_bridge 0D9#2301020304
(1731793463.492512) can_bridge 220#00
(1731793463.493305) can_bridge 0D1#AD8AA64500EC
(1731793463.494363) can_bridge 0D8#2301020304
(1731793463.495262) can_bridge 199#86C86A1D2E95
(1731793463.496277) can_bridge 0D0#755C2AEA62DC
(1731793463.497275) can_bridge 1B9#0001020304
(1731793463.498324) can_bridge 198#3740FF2CEAF4
(1731793463.499193) can_bridge 211#00
(1731793463.500786) can_bridge 1B8#0001020304
(1731793463.501984) can_bridge 219#00
(1731793463.503015) can_bridge 210#00
(1731793463.504912) can_bridge 221#00
(1731793463.507259) can_bridge 218#00
(1731793463.509058) can_bridge 0D9#2301020304
(1731793463.511798) can_bridge 0D1#E26F6DB0FFB9
(1731793463.512701) can_bridge 220#00
(1731793463.514821) can_bridge 199#BDA32520422E
(1731793463.515722) can_bridge 0D8#2301020304
(1731793463.517906) can_bridge 1B9#0001020304
(1731793463.517970) can_bridge 0D0#B56EB9000B69
(1731793463.520418) can_bridge 198#B5139DFEE5D1
(1731793463.521719) can_bridge 211#00
(1731793463.522847) can_bridge 1B8#0001020304
(1731793463.524784) can_bridge 219#00
(1731793463.526021) can_bridge 210#00
(1731793463.529053) can_bridge 218#00
(1731793463.530124) can_bridge 221#00
(1731793463.533440) can_bridge 0D9#2301020304
(1731793463.533683) can_bridge 220#00
(1731793463.536117) can_bridge 0D8#2301020304
(1731793463.536118) can_bridge 0D1#87F533AAA1F0
(1731793463.538369) can_bridge 0D0#D226E054B80E
(1731793463.538707) can_bridge 199#F41AAE98115C
(1731793463.540384) can_bridge 198#327A3C6540B7
(1731793463.540625) can_bridge 1B9#0001020304
(1731793463.542588) can_bridge 1B8#0001020304
(1731793463.542779) can_bridge 211#00
(1731793463.544545) can_bridge 210#00
(1731793463.544713) can_bridge 219#00
(1731793463.546383) can_bridge 218#00
(1731793463.546568) can_bridge 221#00
(1731793463.548151) can_bridge 220#00
(1731793463.548614) can_bridge 0D9#2301020304
(1731793463.550091) can_bridge 0D8#2301020304
(1731793463.551043) can_bridge 0D1#D13F6A9A966E
(1731793463.553581) can_bridge 0D0#EBF913A325B0
(1731793463.553930) can_bridge 199#06B8F3495A37
(1731793463.556734) can_bridge 198#D3C2E3655F6D
(1731793463.557208) can_bridge 1B9#0001020304
(1731793463.559707) can_bridge 1B8#0001020304
(1731793463.560685) can_bridge 211#00
(1731793463.562546) can_bridge 210#00
(1731793463.563326) can_bridge 219#00
(1731793463.566472) can_bridge 218#00
(1731793463.566538) can_bridge 221#00
(1731793463.569343) can_bridge 0D9#2301020304
(1731793463.569855) can_bridge 220#00
(1731793463.572882) can_bridge 0D1#ECCB674634B5
(1731793463.574136) can_bridge 0D8#2301020304
(1731793463.575202) can_bridge 199#E4E2EC7D46A8
(1731793463.577020) can_bridge 0D0#93A7077FB4D0
(1731793463.578078) can_bridge 1B9#0001020304
(1731793463.579715) can_bridge 198#E60A545591AA
(1731793463.580650) can_bridge 211#00
(1731793463.582440) can_bridge 1B8#0001020304
(1731793463.584581) can_bridge 219#00
(1731793463.584932) can_bridge 210#00
(1731793463.587701) can_bridge 221#00
(1731793463.588030) can_bridge 218#00
(1731793463.591844) can_bridge 220#00
(1731793463.591925) can_bridge 0D9#2301020304
(1731793463.594483) can_bridge 0D1#B9E9E498094E
(1731793463.595435) can_bridge 0D8#2301020304
(1731793463.597388) can_bridge 199#5CDD053135E1
(1731793463.597931) can_bridge 0D0#7C4A5C6D33CA
(1731793463.600583) can_bridge 1B9#0001020304
(1731793463.601760) can_bridge 198#77CACA754E8A
(1731793463.603824) can_bridge 211#00
(1731793463.606060) can_bridge 1B8#0001020304
(1731793463.607031) can_bridge 219#00
(1731793463.609493) can_bridge 221#00
(1731793463.609494) can_bridge 210#00
(1731793463.611888) can_bridge 0D9#2301020304
(1731793463.612234) can_bridge 218#00
(1731793463.614688) can_bridge 0D1#1B79B5A32B5B
(1731793463.615740) can_bridge 220#00
(1731793463.618136) can_bridge 199#19A2F9DC003D
(1731793463.618478) can_bridge 0D8#2301020304
(1731793463.621343) can_bridge 0D0#E86021CEBE22
(1731793463.622147) can_bridge 1B9#0001020304
(1731793463.624746) can_bridge 198#B2DB260800AB
(1731793463.625819) can_bridge 211#00
(1731793463.629226) can_bridge 1B8#0001020304
(1731793463.630816) can_bridge 219#00
(1731793463.632728) can_bridge 210#00
(1731793463.633463) can_bridge 221#00
(1731793463.635452) can_bridge 218#00
(1731793463.635640) can_bridge 0D9#2301020304
(1731793463.637895) can_bridge 0D1#0AFC72962D88
(1731793463.637991) can_bridge 220#00
(1731793463.639872) can_bridge 0D8#2301020304
(1731793463.640135) can_bridge 199#0F8E192CC022
(1731793463.641898) can_bridge 0D0#7C765DFAA321
(1731793463.642180) can_bridge 1B9#0001020304
(1731793463.644184) can_bridge 198#BFF6BE48A13E
(1731793463.644614) can_bridge 211#00
(1731793463.646403) can_bridge 1B8#0001020304
(1731793463.647514) can_bridge 219#00
(1731793463.648930) can_bridge 210#00
(1731793463.650122) can_bridge 221#00
(1731793463.651724) can_bridge 218#00
(1731793463.652896) can_bridge 0D9#2301020304
(1731793463.654549) can_bridge 220#00
(1731793463.655653) can_bridge 0D1#2130F464A002
(1731793463.656840) can_bridge 0D8#2301020304
(1731793463.658380) can_bridge 199#DD2CABDBA83A
(1731793463.659588) can_bridge 0D0#04198E3F28C3
(1731793463.661330) can_bridge 1B9#0001020304
(1731793463.663790) can_bridge 198#B2A871982304
(1731793463.664213) can_bridge 211#00
(1731793463.666597) can_bridge 1B8#0001020304
(1731793463.667029) can_bridge 219#00
(1731793463.670806) can_bridge 221#00
(1731793463.671954) can_bridge 210#00
(1731793463.674523) can_bridge 0D9#2301020304
(1731793463.675552) can_bridge 218#00
(1731793463.679052) can_bridge 0D1#877C27E9486F
(1731793463.680031) can_bridge 220#00
(1731793463.681073) can_bridge 199#B444760AF80A
(1731793463.681971) can_bridge 0D8#2301020304
(1731793463.683178) can_bridge 1B9#0001020304
(1731793463.684272) can_bridge 0D0#71891C23BEDF
(1731793463.685457) can_bridge 211#00
(1731793463.686886) can_bridge 198#5A5497FAEF70
(1731793463.688001) can_bridge 219#00
(1731793463.689774) can_bridge 1B8#0001020304
(1731793463.690499) can_bridge 221#00
(1731793463.692426) can_bridge 210#00
(1731793463.693253) can_bridge 0D9#2301020304
(1731793463.695467) can_bridge 218#00
(1731793463.696152) can_bridge 0D1#DAA37E602060
(1731793463.698558) can_bridge 220#00
(1731793463.698916) can_bridge 199#82FFFAE27C7C
(1731793463.700937) can_bridge 0D8#2301020304
(1731793463.701507) can_bridge 1B9#0001020304
(1731793463.703394) can_bridge 0D0#26388FCCC0AF
(1731793463.704211) can_bridge 211#00
(1731793463.707516) can_bridge 198#E394CFD45AED
(1731793463.707905) can_bridge 219#00
(1731793463.710794) can_bridge 1B8#0001020304
(1731793463.711368) can_bridge 221#00
(1731793463.713763) can_bridge 210#00
(1731793463.714981) can_bridge 0D9#2301020304
(1731793463.717360) can_bridge 218#00
(1731793463.720697) can_bridge 0D1#69565C2FD822
(1731793463.720696) can_bridge 220#00
(1731793463.723633) can_bridge 199#B01DCD96BB3C
(1731793463.723690) can_bridge 0D8#2301020304
(1731793463.726335) can_bridge 0D0#24D6D7C1DBC0
(1731793463.729409) can_bridge 198#E36F9B1B37D5
(1731793463.729744) can_bridge 1B9#0001020304
(1731793463.733939) can_bridge 211#00
(1731793463.734098) can_bridge 1B8#0001020304
(1731793463.736417) can_bridge 210#00
(1731793463.737167) can_bridge 219#00
(1731793463.739881) can_bridge 221#00
(1731793463.740137) can_bridge 218#00
(1731793463.742695) can_bridge 0D9#2301020304
(1731793463.744075) can_bridge 220#00
(1731793463.745139) can_bridge 0D1#0B38E1704BD9
(1731793463.747621) can_bridge 0D8#2301020304
(1731793463.747860) can_bridge 199#969D9445FB8F
(1731793463.750298) can_bridge 1B9#0001020304
(1731793463.750985) can_bridge 0D0#F46BDE83A077
(1731793463.753830) can_bridge 211#00
(1731793463.755372) can_bridge 198#3B62A5C8DCC3
(1731793463.757414) can_bridge 219#00
(1731793463.759205) can_bridge 1B8#0001020304
(1731793463.760653) can_bridge 221#00
(1731793463.763007) can_bridge 0D9#2301020304
(1731793463.763246) can_bridge 210#00
(1731793463.766362) can_bridge 0D1#CF76B8FB2460
(1731793463.767268) can_bridge 218#00
(1731793463.769533) can_bridge 199#54ADF32E3F9D
(1731793463.770347) can_bridge 220#00
(1731793463.771735) can_bridge 1B9#0001020304
(1731793463.772767) can_bridge 0D8#2301020304
(1731793463.773921) can_bridge 211#00
(1731793463.774970) can_bridge 0D0#ECC5D5A34445
(1731793463.776104) can_bridge 219#00
(1731793463.778866) can_bridge 198#CEE811C499F7
(1731793463.779885) can_bridge 221#00
(1731793463.781687) can_bridge 1B8#0001020304
(1731793463.784293) can_bridge 210#00
(1731793463.785174) can_bridge 0D9#2301020304
(1731793463.786858) can_bridge 218#00
(1731793463.787722) can_bridge 0D1#AA439850190B
(1731793463.790053) can_bridge 220#00
(1731793463.791127) can_bridge 199#A8862B419E0E
(1731793463.794613) can_bridge 0D8#2301020304
(1731793463.794853) can_bridge 1B9#0001020304
(1731793463.798363) can_bridge 0D0#B0F9ADC56476
(1731793463.799197) can_bridge 211#00
(1731793463.801624) can_bridge 198#628C4644EC9E
(1731793463.801860) can_bridge 219#00
(1731793463.804465) can_bridge 1B8#0001020304
(1731793463.806454) can_bridge 221#00
(1731793463.808557) can_bridge 210#00
(1731793463.810952) can_bridge 0D9#2301020304
(1731793463.811239) can_bridge 218#00
(1731793463.813712) can_bridge 220#00
(1731793463.816592) can_bridge 0D8#2301020304
(1731793463.817023) can_bridge 0D1#98B142DDE767
(1731793463.821278) can_bridge 0D0#21D2C689813F
(1731793463.821377) can_bridge 199#FFD9DD2BBA9F
(1731793463.826320) can_bridge 1B9#0001020304
(1731793463.826426) can_bridge 198#E7F545CDBAEF
(1731793463.829057) can_bridge 211#00
(1731793463.829550) can_bridge 1B8#0001020304
(1731793463.832753) can_bridge 219#00
(1731793463.834910) can_bridge 210#00
(1731793463.836980) can_bridge 221#00
(1731793463.837299) can_bridge 218#00
(1731793463.839449) can_bridge 0D9#2301020304
(1731793463.839730) can_bridge 220#00
(1731793463.842325) can_bridge 0D1#192371E6F632
(1731793463.844297) can_bridge 0D8#2301020304
(1731793463.844830) can_bridge 199#3AC951EBFB6C
(1731793463.847155) can_bridge 1B9#0001020304
(1731793463.848734) can_bridge 0D0#77D3F3EC5C51
(1731793463.850334) can_bridge 211#00
(1731793463.851306) can_bridge 198#A8151D373319
(1731793463.855558) can_bridge 1B8#0001020304
(1731793463.856606) can_bridge 219#00
(1731793463.860710) can_bridge 210#00
(1731793463.861774) can_bridge 221#00
(1731793463.863441) can_bridge 218#00
(1731793463.865843) can_bridge 220#00
(1731793463.866557) can_bridge 0D9#2301020304
(1731793463.869363) can_bridge 0D8#2301020304
(1731793463.870426) can_bridge 0D1#28E059A9B516
(1731793463.872954) can_bridge 199#077D358FE167
(1731793463.873224) can_bridge 0D0#3250C40E56C5
(1731793463.875649) can_bridge 198#ADAE0814C405
(1731793463.875721) can_bridge 1B9#0001020304
(1731793463.878909) can_bridge 211#00
(1731793463.879389) can_bridge 1B8#0001020304
(1731793463.881585) can_bridge 219#00
(1731793463.884025) can_bridge 221#00
(1731793463.884229) can_bridge 210#00
(1731793463.887791) can_bridge 218#00
(1731793463.888235) can_bridge 0D9#2301020304
(1731793463.891415) can_bridge 220#00
(1731793463.892424) can_bridge 0D1#02AA621BD423
(1731793463.893680) can_bridge 0D8#2301020304
(1731793463.894729) can_bridge 199#35593A3A8B67
(1731793463.895778) can_bridge 0D0#DCD571A30AEC
(1731793463.896932) can_bridge 1B9#0001020304
(1731793463.898037) can_bridge 198#F87063AB54EE
(1731793463.899095) can_bridge 211#00
(1731793463.899962) can_bridge 1B8#0001020304
(1731793463.901456) can_bridge 219#00
(1731793463.902282) can_bridge 210#00
(1731793463.904296) can_bridge 221#00
(1731793463.904412) can_bridge 218#00
(1731793463.906797) can_bridge 220#00
(1731793463.906883) can_bridge 0D9#2301020304
(1731793463.909356) can_bridge 0D8#2301020304
(1731793463.909639) can_bridge 0D1#19E40AB6A948
(1731793463.911419) can_bridge 0D0#169E134CA04D
(1731793463.911688) can_bridge 199#EFB3B84A84F4
(1731793463.913670) can_bridge 1B9#0001020304
(1731793463.914341) can_bridge 198#A398D39D88FB
(1731793463.915979) can_bridge 211#00
(1731793463.917253) can_bridge 1B8#0001020304
(1731793463.918280) can_bridge 219#00
(1731793463.919735) can_bridge 210#00
(1731793463.921958) can_bridge 221#00
(1731793463.923299) can_bridge 218#00
(1731793463.924235) can_bridge 0D9#2301020304
(1731793463.925245) can_bridge 220#00
(1731793463.926283) can_bridge 0D1#545BDE08E799
(1731793463.927138) can_bridge 0D8#2301020304
(1731793463.928038) can_bridge 199#8CDE9C9F9EB2
(1731793463.928908) can_bridge 0D0#52067627DD21
(1731793463.929825) can_bridge 1B9#0001020304
(1731793463.930738) can_bridge 198#0C7A1F8336D6
(1731793463.931540) can_bridge 211#00
(1731793463.932549) can_bridge 1B8#0001020304
(1731793463.933294) can_bridge 219#00
(1731793463.934981) can_bridge 210#00
(1731793463.935622) can_bridge 221#00
(1731793463.936970) can_bridge 218#00
(1731793463.937758) can_bridge 0D9#2301020304
(1731793463.938796) can_bridge 220#00
(1731793463.939669) can_bridge 0D1#4C1BBFC60288
(1731793463.940660) can_bridge 0D8#2301020304
(1731793463.942088) can_bridge 199#20E8E97999AD
(1731793463.943015) can_bridge 0D0#9E0CB073374B
(1731793463.944433) can_bridge 1B9#0001020304
(1731793463.945202) can_bridge 198#5AA43ED12215
(1731793463.947535) can_bridge 1B8#0001020304
(1731793463.947607) can_bridge 211#00
(1731793463.950265) can_bridge 219#00
(1731793463.951462) can_bridge 210#00
(1731793463.953816) can_bridge 221#00
(1731793463.954784) can_bridge 218#00
(1731793463.957781) can_bridge 0D9#2301020304
(1731793463.958424) can_bridge 220#00
(1731793463.960069) can_bridge 0D1#D8C665AF3246
(1731793463.960684) can_bridge 0D8#2301020304
(1731793463.962542) can_bridge 199#0D195ACF4791
(1731793463.962826) can_bridge 0D0#A67B1703C1EB
(1731793463.964807) can_bridge 1B9#0001020304
(1731793463.965074) can_bridge 198#23D4BCB756A6
(1731793463.967072) can_bridge 211#00
(1731793463.967327) can_bridge 1B8#0001020304
(1731793463.969273) can_bridge 219#00
(1731793463.969739) can_bridge 210#00
(1731793463.971495) can_bridge 221#00
(1731793463.971853) can_bridge 218#00
(1731793463.973856) can_bridge 0D9#2301020304
(1731793463.975076) can_bridge 220#00
(1731793463.976864) can_bridge 0D1#4A7481159D12
(1731793463.978362) can_bridge 0D8#2301020304
(1731793463.979165) can_bridge 199#3F6D4164A004
(1731793463.980952) can_bridge 0D0#A17F7B18E381
(1731793463.981356) can_bridge 1B9#0001020304
(1731793463.983310) can_bridge 198#BD0DEF2FA687
(1731793463.983736) can_bridge 211#00
(1731793463.986547) can_bridge 1B8#0001020304
(1731793463.987213) can_bridge 219#00
(1731793463.989205) can_bridge 210#00
(1731793463.989472) can_bridge 221#00
(1731793463.991158) can_bridge 218#00
(1731793463.991386) can_bridge 0D9#2301020304
(1731793463.992988) can_bridge 220#00
(1731793463.993281) can_bridge 0D1#4588F86ABF18
(1731793463.994853) can_bridge 0D8#2301020304
(1731793463.995219) can_bridge 199#132261E6D033
(1731793463.996779) can_bridge 0D0#EEF6582B869E
(1731793463.997135) can_bridge 1B9#0001020304
(1731793463.998854) can_bridge 198#AEED7CDF68D8
(1731793463.999298) can_bridge 211#00
(1731793464.001170) can_bridge 1B8#0001020304
(1731793464.001601) can_bridge 219#00
(1731793464.003458) can_bridge 210#00
(1731793464.004047) can_bridge 221#00
(1731793464.006928) can_bridge 218#00
(1731793464.007200) can_bridge 0D9#2301020304
(1731793464.009545) can_bridge 220#00
(1731793464.010318) can_bridge 0D1#5B34C70BD859
(1731793464.012858) can_bridge 0D8#2301020304
(1731793464.013262) can_bridge 199#10A3E53932D5
(1731793464.015852) can_bridge 0D0#EB6248F9027E
(1731793464.016141) can_bridge 1B9#0001020304
(1731793464.019209) can_bridge 198#F882D957BCF7
(1731793464.020844) can_bridge 211#00
(1731793464.023044) can_bridge 1B8#0001020304
(1731793464.023727) can_bridge 219#00
(1731793464.025833) can_bridge 210#00
(1731793464.026098) can_bridge 221#00
(1731793464.028024) can_bridge 218#00
(1731793464.028729) can_bridge 0D9#2301020304
(1731793464.030357) can_bridge 220#00
(1731793464.031343) can_bridge 0D1#25AA60AD240D
(1731793464.032499) can_bridge 0D8#2301020304
(1731793464.033327) can_bridge 199#3B0EFCE33819
(1731793464.034424) can_bridge 0D0#FBA99E6C8605
(1731793464.035128) can_bridge 1B9#0001020304
(1731793464.036432) can_bridge 198#BB3891EA56B6
(1731793464.037035) can_bridge 211#00
(1731793464.038585) can_bridge 1B8#0001020304
(1731793464.039065) can_bridge 219#00
(1731793464.040856) can_bridge 210#00
(1731793464.041083) can_bridge 221#00
(1731793464.043515) can_bridge 0D9#2301020304
(1731793464.044352) can_bridge 218#00
(1731793464.046354) can_bridge 0D1#308744204B17
(1731793464.047009) can_bridge 220#00
(1731793464.048915) can_bridge 199#FFA918CDEF6D
(1731793464.049872) can_bridge 0D8#2301020304
(1731793464.051761) can_bridge 1B9#0001020304
(1731793464.052307) can_bridge 0D0#618DDB2A1058
(1731793464.053898) can_bridge 211#00
(1731793464.054231) can_bridge 198#F88C13B96B51
(1731793464.055845) can_bridge 219#00
(1731793464.056167) can_bridge 1B8#0001020304
(1731793464.057857) can_bridge 221#00
(1731793464.058211) can_bridge 210#00
(1731793464.059786) can_bridge 0D9#2301020304
(1731793464.060371) can_bridge 218#00
(1731793464.062230) can_bridge 0D1#23FA27AFA640
(1731793464.062604) can_bridge 220#00
(1731793464.064412) can_bridge 199#92140A79C5F7
(1731793464.064703) can_bridge 0D8#2301020304
(1731793464.067051) can_bridge 1B9#0001020304
(1731793464.067115) can_bridge 0D0#940F9296E9D6
(1731793464.070011) can_bridge 198#B66966BAB507
(1731793464.070392) can_bridge 211#00
(1731793464.072228) can_bridge 1B8#0001020304
(1731793464.073636) can_bridge 219#00
(1731793464.074998) can_bridge 210#00
(1731793464.077038) can_bridge 221#00
(1731793464.079413) can_bridge 218#00
(1731793464.080053) can_bridge 0D9#2301020304
(1731793464.084408) can_bridge 0D1#C3B5CFFC8739
(1731793464.084764) can_bridge 220#00
(1731793464.086914) can_bridge 199#CF1346167AA8
(1731793464.087182) can_bridge 0D8#2301020304
(1731793464.089204) can_bridge 1B9#0001020304
(1731793464.090237) can_bridge 0D0#BC6440736C59
(1731793464.091307) can_bridge 211#00
(1731793464.092772) can_bridge 198#62FE0FF8E5AD
(1731793464.093835) can_bridge 219#00
(1731793464.094982) can_bridge 1B8#0001020304
(1731793464.096207) can_bridge 221#00
(1731793464.097242) can_bridge 210#00
(1731793464.098294) can_bridge 0D9#2301020304
(1731793464.099215) can_bridge 218#00
(1731793464.100159) can_bridge 0D1#7087CE761428
(1731793464.101285) can_bridge 220#00
(1731793464.102551) can_bridge 199#4779FBEC981D
(1731793464.103708) can_bridge 0D8#2301020304
(1731793464.105031) can_bridge 1B9#0001020304
(1731793464.106041) can_bridge 0D0#E45234EC75E6
(1731793464.108318) can_bridge 211#00
(1731793464.109042) can_bridge 198#8A940025EB5F
(1731793464.111260) can_bridge 219#00
(1731793464.112303) can_bridge 1B8#0001020304
(1731793464.114085) can_bridge 221#00
(1731793464.114624) can_bridge 210#00
(1731793464.115938) can_bridge 0D9#2301020304
(1731793464.116560) can_bridge 218#00
(1731793464.117869) can_bridge 0D1#7E9B61DA21D8
(1731793464.118601) can_bridge 220#00
(1731793464.119696) can_bridge 199#92C2620F8EE5
(1731793464.120600) can_bridge 0D8#2301020304
(1731793464.121643) can_bridge 1B9#0001020304
(1731793464.123590) can_bridge 0D0#202716644AA5
(1731793464.123898) can_bridge 211#00
(1731793464.125593) can_bridge 198#0FB2BE931473
(1731793464.126101) can_bridge 219#00
(1731793464.127638) can_bridge 1B8#0001020304
(1731793464.127880) can_bridge 221#00
(1731793464.129515) can_bridge 210#00
(1731793464.129893) can_bridge 0D9#2301020304
(1731793464.131449) can_bridge 218#00
(1731793464.131788) can_bridge 0D1#95D0DC561C41
(1731793464.133606) can_bridge 220#00
(1731793464.134206) can_bridge 199#8A0354A3533A
(1731793464.139019) can_bridge 0D8#2301020304
(1731793464.139270) can_bridge 1B9#0001020304
(1731793464.142478) can_bridge 211#00
(1731793464.143401) can_bridge 0D0#A96F0D72F91E
(1731793464.147230) can_bridge 219#00
(1731793464.148538) can_bridge 198#4A2E8CB1A295
(1731793464.149531) can_bridge 221#00
(1731793464.151361) can_bridge 1B8#0001020304
(1731793464.152059) can_bridge 0D9#2301020304
(1731793464.153866) can_bridge 210#00
(1731793464.154952) can_bridge 0D1#752B98D5879D
(1731793464.155994) can_bridge 218#00
(1731793464.157146) can_bridge 199#087E5A5A63D8
(1731793464.158172) can_bridge 220#00
(1731793464.159145) can_bridge 1B9#0001020304
(1731793464.160197) can_bridge 0D8#2301020304
(1731793464.161206) can_bridge 211#00
(1731793464.162852) can_bridge 0D0#F431FB2F2B7F
(1731793464.163481) can_bridge 219#00
(1731793464.165153) can_bridge 198#4F99F49553AA
(1731793464.166015) can_bridge 221#00
(1731793464.167714) can_bridge 1B8#0001020304
(1731793464.167943) can_bridge 0D9#2301020304
(1731793464.170040) can_bridge 210#00
(1731793464.170382) can_bridge 0D1#480B1195F549
(1731793464.172296) can_bridge 218#00
(1731793464.172817) can_bridge 199#EEB8EF1AF3C1
(1731793464.175451) can_bridge 220#00
(1731793464.175824) can_bridge 1B9#0001020304
(1731793464.179045) can_bridge 211#00
(1731793464.179458) can_bridge 0D8#2301020304
(1731793464.180946) can_bridge 219#00
(1731793464.181278) can_bridge 0D0#02ED523E3CEB
(1731793464.183069) can_bridge 221#00
(1731793464.183927) can_bridge 198#DA32EAC3ED7F
(1731793464.185075) can_bridge 0D9#2301020304
(1731793464.185967) can_bridge 1B8#0001020304
(1731793464.186982) can_bridge 0D1#B21048B8CB41
(1731793464.187903) can_bridge 210#00
(1731793464.188933) can_bridge 199#69FE1F9EE874
(1731793464.189770) can_bridge 218#00
(1731793464.190817) can_bridge 1B9#0001020304
(1731793464.191654) can_bridge 220#00
(1731793464.192712) can_bridge 211#00
(1731793464.193540) can_bridge 0D8#2301020304
(1731793464.194995) can_bridge 219#00
(1731793464.196129) can_bridge 0D0#D3A1CB0EE3E4
(1731793464.197234) can_bridge 221#00
(1731793464.198759) can_bridge 198#8D6D241E39BD
(1731793464.199949) can_bridge 0D9#2301020304
(1731793464.201334) can_bridge 1B8#0001020304
(1731793464.203287) can_bridge 0D1#C41ABC994BAD
(1731793464.204950) can_bridge 210#00
(1731793464.206567) can_bridge 199#9D4F93AE6CE3
(1731793464.207729) can_bridge 218#00
(1731793464.211072) can_bridge 1B9#0001020304
(1731793464.211193) can_bridge 220#00
(1731793464.213456) can_bridge 0D8#2301020304
(1731793464.213552) can_bridge 211#00
(1731793464.215895) can_bridge 219#00
(1731793464.215968) can_bridge 0D0#223FBB39A95A
(1731793464.218190) can_bridge 198#D9BB19CAFC10
(1731793464.218834) can_bridge 221#00
(1731793464.220234) can_bridge 1B8#0001020304
(1731793464.221319) can_bridge 0D9#2301020304
(1731793464.222424) can_bridge 210#00
(1731793464.223477) can_bridge 0D1#382E74AB0D0D
(1731793464.224597) can_bridge 218#00
(1731793464.225601) can_bridge 199#84C6FE40E8F0
(1731793464.226616) can_bridge 220#00
(1731793464.227652) can_bridge 1B9#0001020304
(1731793464.228613) can_bridge 0D8#2301020304
(1731793464.229569) can_bridge 211#00
(1731793464.230660) can_bridge 0D0#B6448521FADC
(1731793464.231705) can_bridge 219#00
(1731793464.232758) can_bridge 198#4690D6DA6485
(1731793464.234245) can_bridge 221#00
(1731793464.235713) can_bridge 1B8#0001020304
(1731793464.236599) can_bridge 0D9#2301020304
(1731793464.238663) can_bridge 210#00
(1731793464.239441) can_bridge 0D1#D2748F88A756
(1731793464.242224) can_bridge 199#AB1C2ABA6F5F
(1731793464.242764) can_bridge 218#00
(1731793464.244646) can_bridge 1B9#0001020304
(1731793464.244850) can_bridge 220#00
(1731793464.246822) can_bridge 211#00
(1731793464.247187) can_bridge 0D8#2301020304
(1731793464.249012) can_bridge 219#00
(1731793464.249358) can_bridge 0D0#66CE66567D33
(1731793464.251139) can_bridge 221#00
(1731793464.251681) can_bridge 198#309728CE6EF7
(1731793464.253871) can_bridge 0D9#2301020304
(1731793464.253990) can_bridge 1B8#0001020304
(1731793464.256359) can_bridge 210#00
(1731793464.256707) can_bridge 0D1#CCBFA96511DB
(1731793464.258659) can_bridge 218#00
(1731793464.259019) can_bridge 199#0D1810CBAA67
(1731793464.260728) can_bridge 220#00
(1731793464.261062) can_bridge 1B9#0001020304
(1731793464.262892) can_bridge 0D8#2301020304
(1731793464.263259) can_bridge 211#00
(1731793464.265123) can_bridge 0D0#CE4F743B4AC8
(1731793464.265926) can_bridge 219#00
(1731793464.268059) can_bridge 198#A386C80C082C
(1731793464.269054) can_bridge 221#00
(1731793464.272209) can_bridge 0D9#2301020304
(1731793464.272209) can_bridge 1B8#0001020304
(1731793464.275685) can_bridge 0D1#865DB0246837
(1731793464.275919) can_bridge 210#00
(1731793464.278602) can_bridge 218#00
(1731793464.278672) can_bridge 199#500A10ECEDB3
(1731793464.280981) can_bridge 220#00
(1731793464.281377) can_bridge 1B9#0001020304
(1731793464.283622) can_bridge 0D8#2301020304
(1731793464.283755) can_bridge 211#00
(1731793464.286001) can_bridge 219#00
(1731793464.286455) can_bridge 0D0#48E9E5EA26BC
(1731793464.287910) can_bridge 221#00
(1731793464.288350) can_bridge 198#7A51699F45CA
(1731793464.289900) can_bridge 0D9#2301020304
(1731793464.290223) can_bridge 1B8#0001020304
(1731793464.291736) can_bridge 0D1#A1DC5419B073
(1731793464.291968) can_bridge 210#00
(1731793464.293659) can_bridge 199#283CCB18F0FB
(1731793464.293966) can_bridge 218#00
(1731793464.295617) can_bridge 1B9#0001020304
(1731793464.295922) can_bridge 220#00
(1731793464.297999) can_bridge 211#00
(1731793464.298317) can_bridge 0D8#2301020304
(1731793464.300209) can_bridge 219#00
(1731793464.300691) can_bridge 0D0#EC27ED213AC5
(1731793464.302769) can_bridge 221#00
(1731793464.303312) can_bridge 198#0D0E434AC906
(1731793464.305936) can_bridge 0D9#2301020304
(1731793464.306282) can_bridge 1B8#0001020304
(1731793464.307940) can_bridge 0D1#7A38513B1B64
(1731793464.308108) can_bridge 210#00
(1731793464.309738) can_bridge 199#EDAB5A6051BF
(1731793464.309976) can_bridge 218#00
(1731793464.311498) can_bridge 1B9#0001020304
(1731793464.311712) can_bridge 220#00
(1731793464.313165) can_bridge 211#00
(1731793464.313496) can_bridge 0D8#2301020304
(1731793464.315166) can_bridge 219#00
(1731793464.315417) can_bridge 0D0#1C55E91CACAF
(1731793464.316944) can_bridge 221#00
(1731793464.317335) can_bridge 198#438B225B8D72
(1731793464.318810) can_bridge 0D9#2301020304
(1731793464.319038) can_bridge 1B8#0001020304
(1731793464.320661) can_bridge 0D1#2EE04884EF60
(1731793464.321161) can_bridge 210#00
(1731793464.322667) can_bridge 199#6647289FD4F7
(1731793464.322934) can_bridge 218#00
(1731793464.324956) can_bridge 220#00
(1731793464.325246) can_bridge 1B9#0001020304
(1731793464.327547) can_bridge 0D8#2301020304
(1731793464.327707) can_bridge 211#00
(1731793464.330485) can_bridge 0D0#EF13B8A3ED02
(1731793464.331320) can_bridge 219#00
(1731793464.333117) can_bridge 198#27A673DAD197
(1731793464.333851) can_bridge 221#00
(1731793464.336705) can_bridge 1B8#0001020304
(1731793464.337809) can_bridge 0D9#2301020304
(1731793464.338852) can_bridge 210#00
(1731793464.339656) can_bridge 0D1#6BADA359EBA4
(1731793464.340726) can_bridge 218#00
(1731793464.341534) can_bridge 199#6AA65903EDAA
(1731793464.342607) can_bridge 220#00
(1731793464.343465) can_bridge 1B9#0001020304
(1731793464.344532) can_bridge 0D8#2301020304
(1731793464.345390) can_bridge 211#00
(1731793464.346446) can_bridge 0D0#6F20202250F5
(1731793464.347398) can_bridge 219#00
(1731793464.348499) can_bridge 198#D0F88B1F2D92
(1731793464.349629) can_bridge 221#00
(1731793464.350662) can_bridge 1B8#0001020304
(1731793464.351679) can_bridge 0D9#2301020304
(1731793464.352757) can_bridge 210#00
(1731793464.353807) can_bridge 0D1#17BFD2F56E0C
(1731793464.354829) can_bridge 218#00
(1731793464.355932) can_bridge 199#1F28598F39A6
(1731793464.357248) can_bridge 220#00
(1731793464.358290) can_bridge 1B9#0001020304
(1731793464.359771) can_bridge 0D8#2301020304
(1731793464.360700) can_bridge 211#00
(1731793464.362827) can_bridge 0D0#88FEB8AE7A7B
(1731793464.364641) can_bridge 219#00
(1731793464.365814) can_bridge 198#5517332058C1
(1731793464.368606) can_bridge 221#00
(1731793464.370645) can_bridge 1B8#0001020304
(1731793464.371709) can_bridge 0D9#2301020304
(1731793464.372739) can_bridge 210#00
(1731793464.373808) can_bridge 0D1#9044592458D5
(1731793464.374870) can_bridge 218#00
(1731793464.375886) can_bridge 199#0182AB606173
(1731793464.376882) can_bridge 220#00
(1731793464.377939) can_bridge 1B9#0001020304
(1731793464.378928) can_bridge 0D8#2301020304
(1731793464.379995) can_bridge 211#00
(1731793464.381068) can_bridge 0D0#4AAD8EA45483
(1731793464.382171) can_bridge 219#00
(1731793464.383195) can_bridge 198#C2DB490E1E2E
(1731793464.384205) can_bridge 221#00
(1731793464.385167) can_bridge 1B8#0001020304
(1731793464.386216) can_bridge 0D9#2301020304
(1731793464.387108) can_bridge 210#00
(1731793464.388019) can_bridge 0D1#BA9F98D25F50
(1731793464.389102) can_bridge 218#00
(1731793464.390566) can_bridge 199#3209B90553CD
(1731793464.391430) can_bridge 220#00
(1731793464.392598) can_bridge 1B9#0001020304
(1731793464.393958) can_bridge 0D8#2301020304
(1731793464.395050) can_bridge 211#00
(1731793464.397397) can_bridge 0D0#D004BA692543
(1731793464.398845) can_bridge 219#00
(1731793464.401206) can_bridge 198#0ECB7D849114
(1731793464.402231) can_bridge 221#00
(1731793464.403160) can_bridge 1B8#0001020304
(1731793464.404090) can_bridge 0D9#2301020304
(1731793464.404970) can_bridge 210#00
(1731793464.406027) can_bridge 0D1#BDC227FE8451
(1731793464.406841) can_bridge 218#00
(1731793464.407895) can_bridge 199#458BCB3F7A6A
(1731793464.408840) can_bridge 220#00
(1731793464.409758) can_bridge 1B9#0001020304
(1731793464.410773) can_bridge 0D8#2301020304
(1731793464.411759) can_bridge 211#00
(1731793464.412768) can_bridge 0D0#A0880B767525
(1731793464.414458) can_bridge 219#00
(1731793464.415225) can_bridge 198#B56581EAF1D9
(1731793464.417290) can_bridge 221#00
(1731793464.417547) can_bridge 1B8#0001020304
(1731793464.419645) can_bridge 210#00
(1731793464.420190) can_bridge 0D9#2301020304
(1731793464.422576) can_bridge 218#00
(1731793464.423145) can_bridge 0D1#FBCC33811487
(1731793464.426302) can_bridge 220#00
(1731793464.426592) can_bridge 199#F6B325F79202
(1731793464.429012) can_bridge 0D8#2301020304
(1731793464.430058) can_bridge 1B9#0001020304
(1731793464.432133) can_bridge 0D0#D0694A741BB6
(1731793464.434644) can_bridge 211#00
(1731793464.436270) can_bridge 198#B5FA990C7D90
(1731793464.437495) can_bridge 219#00
(1731793464.438550) can_bridge 1B8#0001020304
(1731793464.439574) can_bridge 221#00
(1731793464.440690) can_bridge 210#00
(1731793464.442268) can_bridge 0D9#2301020304
(1731793464.442633) can_bridge 218#00
(1731793464.444649) can_bridge 0D1#B270F1DB73D9
(1731793464.444869) can_bridge 220#00
(1731793464.446836) can_bridge 0D8#2301020304
(1731793464.447259) can_bridge 199#6824F52BF03D
(1731793464.448671) can_bridge 0D0#8E75A93D3F13
(1731793464.449251) can_bridge 1B9#0001020304
(1731793464.450577) can_bridge 198#45B5F6046276
(1731793464.451335) can_bridge 211#00
(1731793464.453168) can_bridge 1B8#0001020304
(1731793464.453403) can_bridge 219#00
(1731793464.455375) can_bridge 221#00
(1731793464.455710) can_bridge 210#00
(1731793464.457421) can_bridge 0D9#2301020304
(1731793464.457899) can_bridge 218#00
(1731793464.460548) can_bridge 0D1#8A24A6942775
(1731793464.460937) can_bridge 220#00
(1731793464.463861) can_bridge 0D8#2301020304
(1731793464.464370) can_bridge 199#A495519D44F7
(1731793464.467344) can_bridge 1B9#0001020304
(1731793464.467615) can_bridge 0D0#A58E60610811
(1731793464.469254) can_bridge 211#00
(1731793464.469555) can_bridge 198#E45B981A5391
(1731793464.471119) can_bridge 219#00
(1731793464.471468) can_bridge 1B8#0001020304
(1731793464.473052) can_bridge 221#00
(1731793464.473548) can_bridge 210#00
(1731793464.475065) can_bridge 0D9#2301020304
(1731793464.475565) can_bridge 218#00
(1731793464.477196) can_bridge 0D1#CB17F2DC5CF3
(1731793464.477801) can_bridge 220#00
(1731793464.479433) can_bridge 199#26FE12B73D15
(1731793464.480051) can_bridge 0D8#2301020304
(1731793464.481665) can_bridge 1B9#0001020304
(1731793464.482146) can_bridge 0D0#247050C1BD13
(1731793464.484049) can_bridge 211#00
(1731793464.484350) can_bridge 198#374B75872DBB
(1731793464.486450) can_bridge 219#00
(1731793464.486706) can_bridge 1B8#0001020304
(1731793464.490024) can_bridge 210#00
(1731793464.491561) can_bridge 221#00
(1731793464.494255) can_bridge 218#00
(1731793464.494843) can_bridge 0D9#2301020304
(1731793464.497833) can_bridge 220#00
(1731793464.499153) can_bridge 0D1#B643886C5FF1
(1731793464.501838) can_bridge 0D8#2301020304
(1731793464.502114) can_bridge 199#E772C46B8245
(1731793464.504028) can_bridge 0D0#9556D36EB450
(1731793464.504419) can_bridge 1B9#0001020304
(1731793464.506422) can_bridge 198#A04D3FB90F1B
(1731793464.506951) can_bridge 211#00
(1731793464.508942) can_bridge 1B8#0001020304
(1731793464.509466) can_bridge 219#00
(1731793464.511430) can_bridge 210#00
(1731793464.511882) can_bridge 221#00
(1731793464.513522) can_bridge 218#00
(1731793464.513962) can_bridge 0D9#2301020304
(1731793464.515565) can_bridge 220#00
(1731793464.516019) can_bridge 0D1#09E7CCE8C073
(1731793464.517694) can_bridge 0D8#2301020304
(1731793464.518024) can_bridge 199#CF9CADD169B1
(1731793464.520411) can_bridge 0D0#D55C5F1A6D3F
(1731793464.520844) can_bridge 1B9#0001020304
(1731793464.523192) can_bridge 198#1F3504F86581
(1731793464.523922) can_bridge 211#00
(1731793464.526075) can_bridge 1B8#0001020304
(1731793464.527164) can_bridge 219#00
(1731793464.529060) can_bridge 210#00
(1731793464.530924) can_bridge 221#00
(1731793464.532631) can_bridge 218#00
(1731793464.536076) can_bridge 0D9#2301020304
(1731793464.536325) can_bridge 220#00
(1731793464.538457) can_bridge 0D1#99E012100052
(1731793464.539142) can_bridge 0D8#2301020304
(1731793464.540769) can_bridge 199#42DA44EADA9C
(1731793464.541452) can_bridge 0D0#23E752A2ECC7
(1731793464.543058) can_bridge 1B9#0001020304
(1731793464.543752) can_bridge 198#8E8C02C0C2FE
(1731793464.545207) can_bridge 211#00
(1731793464.546269) can_bridge 1B8#0001020304
(1731793464.547261) can_bridge 219#00
(1731793464.548272) can_bridge 210#00
(1731793464.549315) can_bridge 221#00
(1731793464.550362) can_bridge 218#00
(1731793464.551383) can_bridge 0D9#2301020304
(1731793464.553255) can_bridge 220#00
(1731793464.554074) can_bridge 0D1#C507CA4A7EFF
(1731793464.555703) can_bridge 0D8#2301020304
(1731793464.556693) can_bridge 199#97573F79E197
(1731793464.558304) can_bridge 0D0#AC757E732BF2
(1731793464.560104) can_bridge 1B9#0001020304
(1731793464.561406) can_bridge 198#EB2404526068
(1731793464.563247) can_bridge 211#00
(1731793464.565407) can_bridge 1B8#0001020304
(1731793464.566461) can_bridge 219#00
(1731793464.568728) can_bridge 210#00
(1731793464.569263) can_bridge 221#00
(1731793464.570998) can_bridge 218#00
(1731793464.571424) can_bridge 0D9#2301020304
(1731793464.573223) can_bridge 220#00
(1731793464.573685) can_bridge 0D1#BB7E6E9E33B3
(1731793464.575402) can_bridge 0D8#2301020304
(1731793464.575842) can_bridge 199#6642CAFE7430
(1731793464.577758) can_bridge 0D0#43C0C26DF776
(1731793464.578186) can_bridge 1B9#0001020304
(1731793464.579952) can_bridge 198#04B6111D5511
(1731793464.580395) can_bridge 211#00
(1731793464.582432) can_bridge 1B8#0001020304
(1731793464.583049) can_bridge 219#00
(1731793464.585029) can_bridge 210#00
(1731793464.585799) can_bridge 221#00
(1731793464.588495) can_bridge 218#00
(1731793464.590430) can_bridge 0D9#2301020304
(1731793464.591642) can_bridge 220#00
(1731793464.596285) can_bridge 0D8#2301020304
(1731793464.596415) can_bridge 0D1#3CE5FCD46712
(1731793464.599856) can_bridge 0D0#62D14F70A694
(1731793464.600191) can_bridge 199#9E6E51989FF9
(1731793464.603621) can_bridge 198#83A364AF0967
(1731793464.604972) can_bridge 1B9#0001020304
(1731793464.606061) can_bridge 1B8#0001020304
(1731793464.607561) can_bridge 211#00
(1731793464.608925) can_bridge 210#00
(1731793464.610149) can_bridge 219#00
(1731793464.611438) can_bridge 218#00
(1731793464.612667) can_bridge 221#00
(1731793464.613952) can_bridge 220#00
(1731793464.615131) can_bridge 0D9#2301020304
(1731793464.616360) can_bridge 0D8#2301020304
(1731793464.617516) can_bridge 0D1#B0FA5CA6526C
(1731793464.618904) can_bridge 0D0#5F9925755C59
(1731793464.619950) can_bridge 199#587115622983
(1731793464.620963) can_bridge 198#DC21C850CC9A
(1731793464.621988) can_bridge 1B9#0001020304
(1731793464.623002) can_bridge 1B8#0001020304
(1731793464.623934) can_bridge 211#00
(1731793464.624939) can_bridge 210#00
(1731793464.625918) can_bridge 219#00
(1731793464.626733) can_bridge 218#00
(1731793464.627551) can_bridge 221#00
(1731793464.628413) can_bridge 220#00
(1731793464.629239) can_bridge 0D9#2301020304
(1731793464.630217) can_bridge 0D8#2301020304
(1731793464.630907) can_bridge 0D1#0C0B0139B143
(1731793464.631904) can_bridge 0D0#9B5DD5CDBF95
(1731793464.632614) can_bridge 199#00E1F4D0A796
(1731793464.633629) can_bridge 198#61AADE9D37A3
(1731793464.634362) can_bridge 1B9#0001020304
(1731793464.635364) can_bridge 1B8#0001020304
(1731793464.636123) can_bridge 211#00
(1731793464.637173) can_bridge 210#00
(1731793464.637956) can_bridge 219#00
(1731793464.638992) can_bridge 218#00
(1731793464.639949) can_bridge 221#00
(1731793464.640989) can_bridge 220#00
(1731793464.641748) can_bridge 0D9#2301020304
(1731793464.642772) can_bridge 0D8#2301020304
(1731793464.643484) can_bridge 0D1#88136C9A9FA6
(1731793464.644569) can_bridge 0D0#84CE108667D3
(1731793464.645344) can_bridge 199#BD30320FF81C
(1731793464.646388) can_bridge 198#2817A0F265EB
(1731793464.647076) can_bridge 1B9#0001020304
(1731793464.648126) can_bridge 1B8#0001020304
(1731793464.648847) can_bridge 211#00
(1731793464.650287) can_bridge 210#00
(1731793464.651121) can_bridge 219#00
(1731793464.652587) can_bridge 218#00
(1731793464.653551) can_bridge 221#00
(1731793464.654981) can_bridge 220#00
(1731793464.655899) can_bridge 0D9#2301020304
(1731793464.657123) can_bridge 0D8#2301020304
(1731793464.658181) can_bridge 0D1#72EAFEE92AB0
(1731793464.659183) can_bridge 0D0#D1EEAE22F87F
(1731793464.660230) can_bridge 199#722F1E036CD7
(1731793464.661226) can_bridge 198#21B109019B5F
(1731793464.662271) can_bridge 1B9#0001020304
(1731793464.663159) can_bridge 1B8#0001020304
(1731793464.664196) can_bridge 211#00
(1731793464.665238) can_bridge 210#00
(1731793464.666293) can_bridge 219#00
(1731793464.667148) can_bridge 218#00
(1731793464.668173) can_bridge 221#00
(1731793464.669160) can_bridge 220#00
(1731793464.670187) can_bridge 0D9#2301020304
(1731793464.671065) can_bridge 0D8#2301020304
(1731793464.672128) can_bridge 0D1#7C4A8526BEA6
(1731793464.673000) can_bridge 0D0#205D3228ED5C
(1731793464.674424) can_bridge 199#7344E8913431
(1731793464.675181) can_bridge 198#922EC27EF48A
(1731793464.676687) can_bridge 1B9#0001020304
(1731793464.676985) can_bridge 1B8#0001020304
(1731793464.678738) can_bridge 211#00
(1731793464.679089) can_bridge 210#00
(1731793464.680697) can_bridge 219#00
(1731793464.680902) can_bridge 218#00
(1731793464.682430) can_bridge 221#00
(1731793464.682663) can_bridge 220#00
(1731793464.684097) can_bridge 0D9#2301020304
(1731793464.684299) can_bridge 0D8#2301020304
(1731793464.685810) can_bridge 0D1#CC3B97B47C9A
(1731793464.686037) can_bridge 0D0#03FD1F6B9C35
(1731793464.687467) can_bridge 199#2AE05EF8FEE8
(1731793464.687689) can_bridge 198#890598F439F8
(1731793464.689178) can_bridge 1B9#0001020304
(1731793464.689469) can_bridge 1B8#0001020304
(1731793464.691316) can_bridge 211#00
(1731793464.691675) can_bridge 210#00
(1731793464.693620) can_bridge 219#00
(1731793464.693856) can_bridge 218#00
(1731793464.695909) can_bridge 221#00
(1731793464.696648) can_bridge 220#00
(1731793464.698364) can_bridge 0D9#2301020304
(1731793464.699357) can_bridge 0D8#2301020304
(1731793464.701079) can_bridge 0D1#0968D754EBEF
(1731793464.702037) can_bridge 0D0#675348631085
(1731793464.703061) can_bridge 199#BD5322A95893
(1731793464.703958) can_bridge 198#3A0E2F55C165
(1731793464.704971) can_bridge 1B9#0001020304
(1731793464.706030) can_bridge 1B8#0001020304
(1731793464.707770) can_bridge 211#00
(1731793464.708004) can_bridge 210#00
(1731793464.709769) can_bridge 218#00
(1731793464.709959) can_bridge 219#00
(1731793464.711731) can_bridge 221#00
(1731793464.711953) can_bridge 220#00
(1731793464.713837) can_bridge 0D8#2301020304
(1731793464.714052) can_bridge 0D9#2301020304
(1731793464.715656) can_bridge 0D0#E26F60586979
(1731793464.715884) can_bridge 0D1#6630CD1979AC
(1731793464.717319) can_bridge 198#09000F8A2B89
(1731793464.717558) can_bridge 199#3669F871FF19
(1731793464.718963) can_bridge 1B8#0001020304
(1731793464.719168) can_bridge 1B9#0001020304
(1731793464.720602) can_bridge 210#00
(1731793464.720807) can_bridge 211#00
(1731793464.722320) can_bridge 218#00
(1731793464.722543) can_bridge 219#00
(1731793464.724101) can_bridge 220#00
(1731793464.724282) can_bridge 221#00
(1731793464.725780) can_bridge 0D8#2301020304
(1731793464.725989) can_bridge 0D9#2301020304
(1731793464.727425) can_bridge 0D0#C6FC0B5CA2C6
(1731793464.727655) can_bridge 0D1#906834A42FBD
(1731793464.729078) can_bridge 198#70E3EA135B50
(1731793464.729296) can_bridge 199#A48A103A606E
(1731793464.730732) can_bridge 1B8#0001020304
(1731793464.730919) can_bridge 1B9#0001020304
(1731793464.732358) can_bridge 210#00
(1731793464.732572) can_bridge 211#00
(1731793464.734076) can_bridge 218#00
(1731793464.734256) can_bridge 219#00
(1731793464.735696) can_bridge 220#00
(1731793464.735875) can_bridge 221#00
(1731793464.737309) can_bridge 0D8#2301020304
(1731793464.737517) can_bridge 0D9#2301020304
(1731793464.739017) can_bridge 0D0#429B312144A1
(1731793464.739242) can_bridge 0D1#ADF18CB8712B
(1731793464.740735) can_bridge 198#259EF9A95E58
(1731793464.740963) can_bridge 199#17AF1CCCDE6D
(1731793464.742492) can_bridge 1B8#0001020304
(1731793464.742686) can_bridge 1B9#0001020304
(1731793464.744153) can_bridge 210#00
(1731793464.744378) can_bridge 211#00
(1731793464.745847) can_bridge 218#00
(1731793464.746047) can_bridge 219#00
(1731793464.747465) can_bridge 220#00
(1731793464.747661) can_bridge 221#00
(1731793464.749097) can_bridge 0D8#2301020304
(1731793464.749278) can_bridge 0D9#2301020304
(1731793464.750775) can_bridge 0D0#9D409B00D12C
(1731793464.750999) can_bridge 0D1#F145BD809778
(1731793464.752418) can_bridge 198#80E5DD122699
(1731793464.752677) can_bridge 199#9ECD84BED56B
(1731793464.754233) can_bridge 1B8#0001020304
(1731793464.754435) can_bridge 1B9#0001020304
(1731793464.755873) can_bridge 210#00
(1731793464.756066) can_bridge 211#00
(1731793464.757526) can_bridge 218#00
(1731793464.757791) can_bridge 219#00
(1731793464.759163) can_bridge 220#00
(1731793464.759361) can_bridge 221#00
(1731793464.760800) can_bridge 0D8#2301020304
(1731793464.760986) can_bridge 0D9#2301020304
(1731793464.762464) can_bridge 0D0#841224E5B923
(1731793464.762692) can_bridge 0D1#5734DB380771
(1731793464.764108) can_bridge 198#01D0AA36E59F
(1731793464.764333) can_bridge 199#2C333A1689E4
(1731793464.765888) can_bridge 1B8#0001020304
(1731793464.766041) can_bridge 1B9#0001020304
(1731793464.767610) can_bridge 210#00
(1731793464.767780) can_bridge 211#00
(1731793464.769291) can_bridge 218#00
(1731793464.769471) can_bridge 219#00
(1731793464.770903) can_bridge 220#00
(1731793464.771093) can_bridge 221#00
(1731793464.772553) can_bridge 0D8#2301020304
(1731793464.772725) can_bridge 0D9#2301020304
(1731793464.774254) can_bridge 0D0#FD9095A3AD3D
(1731793464.774476) can_bridge 0D1#519210A5A47C
(1731793464.775913) can_bridge 198#74F2EFD5F663
(1731793464.776148) can_bridge 199#2286ED9E23D9
(1731793464.777535) can_bridge 1B8#0001020304
(1731793464.777808) can_bridge 1B9#0001020304
(1731793464.779216) can_bridge 210#00
(1731793464.779456) can_bridge 211#00
(1731793464.780846) can_bridge 218#00
(1731793464.781040) can_bridge 219#00
(1731793464.782484) can_bridge 220#00
(1731793464.782678) can_bridge 221#00
(1731793464.784101) can_bridge 0D8#2301020304
(1731793464.784299) can_bridge 0D9#2301020304
(1731793464.785824) can_bridge 0D0#E2763DED0B29
(1731793464.786061) can_bridge 0D1#BB46F70D1C92
(1731793464.787491) can_bridge 198#54149E39FD20
(1731793464.787732) can_bridge 199#CF977A79B6A3
(1731793464.789106) can_bridge 1B8#0001020304
(1731793464.789307) can_bridge 1B9#0001020304
(1731793464.790722) can_bridge 210#00
(1731793464.790923) can_bridge 211#00
(1731793464.792334) can_bridge 218#00
(1731793464.792553) can_bridge 219#00
(1731793464.794029) can_bridge 220#00
(1731793464.794222) can_bridge 221#00
(1731793464.795641) can_bridge 0D8#2301020304
(1731793464.795833) can_bridge 0D9#2301020304
(1731793464.797299) can_bridge 0D0#355D39BFDED1
(1731793464.797518) can_bridge 0D1#981379D2DA5C
(1731793464.798981) can_bridge 198#5B23F7A6BDDF
(1731793464.799211) can_bridge 199#FCD35407EA53
(1731793464.800613) can_bridge 1B8#0001020304
(1731793464.800807) can_bridge 1B9#0001020304
(1731793464.802257) can_bridge 210#00
(1731793464.802452) can_bridge 211#00
(1731793464.803868) can_bridge 218#00
(1731793464.804071) can_bridge 219#00
(1731793464.805476) can_bridge 220#00
(1731793464.805720) can_bridge 221#00
(1731793464.807108) can_bridge 0D8#2301020304
(1731793464.807315) can_bridge 0D9#2301020304
(1731793464.808766) can_bridge 0D0#7F1E72638895
(1731793464.808997) can_bridge 0D1#A4F383BE4F84
(1731793464.810446) can_bridge 198#5C3D49309B3C
(1731793464.810682) can_bridge 199#677840E4FDC7
(1731793464.812069) can_bridge 1B8#0001020304
(1731793464.812297) can_bridge 1B9#0001020304
(1731793464.813738) can_bridge 210#00
(1731793464.813945) can_bridge 211#00
(1731793464.815342) can_bridge 218#00
(1731793464.815570) can_bridge 219#00
(1731793464.816973) can_bridge 220#00
(1731793464.817175) can_bridge 221#00
(1731793464.818616) can_bridge 0D8#2301020304
(1731793464.818843) can_bridge 0D9#2301020304
(1731793464.820280) can_bridge 0D0#571706116D78
(1731793464.820539) can_bridge 0D1#232CBD0DA61B
(1731793464.821971) can_bridge 198#75B7C63A35D1
(1731793464.822256) can_bridge 199#EA1AAACCFBA8
(1731793464.823647) can_bridge 1B8#0001020304
(1731793464.823854) can_bridge 1B9#0001020304
(1731793464.825269) can_bridge 210#00
(1731793464.825455) can_bridge 211#00
(1731793464.826908) can_bridge 218#00
(1731793464.827110) can_bridge 219#00
(1731793464.828534) can_bridge 220#00
(1731793464.828716) can_bridge 221#00
(1731793464.830178) can_bridge 0D8#2301020304
(1731793464.830367) can_bridge 0D9#2301020304
(1731793464.831821) can_bridge 0D0#308C63AC0873
(1731793464.832060) can_bridge 0D1#88820A13D426
(1731793464.833465) can_bridge 198#5FD39CE8D294
(1731793464.833717) can_bridge 199#C3EAA9AE926A
(1731793464.835155) can_bridge 1B8#0001020304
(1731793464.835336) can_bridge 1B9#0001020304
(1731793464.837008) can_bridge 210#00
(1731793464.837203) can_bridge 211#00
(1731793464.838837) can_bridge 218#00
(1731793464.839018) can_bridge 219#00
(1731793464.840549) can_bridge 220#00
(1731793464.840759) can_bridge 221#00
(1731793464.842327) can_bridge 0D8#2301020304
(1731793464.842509) can_bridge 0D9#2301020304
(1731793464.843985) can_bridge 0D0#EE6166291A06
(1731793464.844211) can_bridge 0D1#5230D42881E8
(1731793464.845691) can_bridge 198#B8754A78AAD0
(1731793464.845994) can_bridge 199#80A2E9EB3460
(1731793464.847402) can_bridge 1B8#0001020304
(1731793464.847613) can_bridge 1B9#0001020304
(1731793464.849018) can_bridge 210#00
(1731793464.849207) can_bridge 211#00
(1731793464.850647) can_bridge 218#00
(1731793464.850848) can_bridge 219#00
(1731793464.852256) can_bridge 220#00
(1731793464.852502) can_bridge 221#00
(1731793464.853941) can_bridge 0D8#2301020304
(1731793464.854130) can_bridge 0D9#2301020304
(1731793464.855635) can_bridge 0D0#A7D19CDDF959
(1731793464.855873) can_bridge 0D1#B9E69E2B43A2
(1731793464.857289) can_bridge 198#21F42DFC5F9F
(1731793464.857512) can_bridge 199#752C6627FB33
(1731793464.858926) can_bridge 1B8#0001020304
(1731793464.859117) can_bridge 1B9#0001020304
(1731793464.860545) can_bridge 210#00
(1731793464.860734) can_bridge 211#00
(1731793464.862153) can_bridge 218#00
(1731793464.862353) can_bridge 219#00
(1731793464.863774) can_bridge 220#00
(1731793464.863962) can_bridge 221#00
(1731793464.865412) can_bridge 0D8#2301020304
(1731793464.865637) can_bridge 0D9#2301020304
(1731793464.867090) can_bridge 0D0#8F43AA64CB6F
(1731793464.867329) can_bridge 0D1#D003CD52A244
(1731793464.868736) can_bridge 198#6DE3E05802DB
(1731793464.868973) can_bridge 199#E4FA3C0CF6EA
(1731793464.870368) can_bridge 1B8#0001020304
(1731793464.870572) can_bridge 1B9#0001020304
(1731793464.871986) can_bridge 210#00
(1731793464.872186) can_bridge 211#00
(1731793464.874319) can_bridge 218#00
(1731793464.874635) can_bridge 219#00
(1731793464.876838) can_bridge 221#00
(1731793464.877759) can_bridge 220#00
(1731793464.878895) can_bridge 0D9#2301020304
(1731793464.879791) can_bridge 0D8#2301020304
(1731793464.882092) can_bridge 0D0#F985943F661E
(1731793464.882166) can_bridge 0D1#C2FAE7FA543C
(1731793464.884413) can_bridge 198#59B816C399F8
(1731793464.884869) can_bridge 199#DFDFD70D856D
(1731793464.886708) can_bridge 1B8#0001020304
(1731793464.887425) can_bridge 1B9#0001020304
(1731793464.889044) can_bridge 210#00
(1731793464.890254) can_bridge 211#00
(1731793464.891743) can_bridge 218#00
(1731793464.892736) can_bridge 219#00
(1731793464.894158) can_bridge 220#00
(1731793464.895241) can_bridge 221#00
(1731793464.896540) can_bridge 0D8#2301020304
(1731793464.897863) can_bridge 0D9#2301020304
(1731793464.899165) can_bridge 0D0#A4410F800ADA
(1731793464.900220) can_bridge 0D1#622005F44C8F
(1731793464.901361) can_bridge 198#501D542FF4E3
(1731793464.902488) can_bridge 199#C04C49C7189B
(1731793464.903585) can_bridge 1B8#0001020304
(1731793464.904871) can_bridge 1B9#0001020304
(1731793464.906169) can_bridge 210#00
(1731793464.907335) can_bridge 211#00
(1731793464.908542) can_bridge 218#00
(1731793464.909712) can_bridge 219#00
(1731793464.910775) can_bridge 220#00
(1731793464.911931) can_bridge 221#00
(1731793464.912556) can_bridge 0D8#2301020304
(1731793464.913967) can_bridge 0D9#2301020304
(1731793464.914636) can_bridge 0D0#BA2D825FE9F7
(1731793464.915701) can_bridge 0D1#23A1FE4FAB3B
(1731793464.916595) can_bridge 198#4E49E4BB758E
(1731793464.917423) can_bridge 199#F878AAA1C7B9
(1731793464.918298) can_bridge 1B8#0001020304
(1731793464.919137) can_bridge 1B9#0001020304
(1731793464.919936) can_bridge 210#00
(1731793464.920817) can_bridge 211#00
(1731793464.921635) can_bridge 218#00
(1731793464.922496) can_bridge 219#00
(1731793464.923325) can_bridge 220#00
(1731793464.924184) can_bridge 221#00
(1731793464.925019) can_bridge 0D8#2301020304
(1731793464.925981) can_bridge 0D9#2301020304
(1731793464.926794) can_bridge 0D0#064ECBEE8234
(1731793464.927750) can_bridge 0D1#6D994756926E
(1731793464.928517) can_bridge 198#8723DF32257B
(1731793464.929459) can_bridge 199#7D95B63A3E69
(1731793464.930219) can_bridge 1B8#0001020304
(1731793464.931155) can_bridge 1B9#0001020304
(1731793464.931897) can_bridge 210#00
(1731793464.932849) can_bridge 211#00
(1731793464.933572) can_bridge 218#00
(1731793464.934569) can_bridge 219#00
(1731793464.935238) can_bridge 220#00
(1731793464.936239) can_bridge 221#00
(1731793464.936968) can_bridge 0D8#2301020304
(1731793464.938030) can_bridge 0D9#2301020304
(1731793464.938715) can_bridge 0D0#CEF585C2BF40
(1731793464.939774) can_bridge 0D1#11FF0339BE18
(1731793464.940594) can_bridge 198#80571B9E1D0A
(1731793464.941569) can_bridge 199#93B4D8F64FEB
(1731793464.942326) can_bridge 1B8#0001020304
(1731793464.943257) can_bridge 1B9#0001020304
(1731793464.943953) can_bridge 210#00
(1731793464.944976) can_bridge 211#00
(1731793464.945677) can_bridge 218#00
(1731793464.946722) can_bridge 219#00
(1731793464.947338) can_bridge 220#00
(1731793464.948394) can_bridge 221#00
(1731793464.948963) can_bridge 0D8#2301020304
(1731793464.950238) can_bridge 0D9#2301020304
(1731793464.950765) can_bridge 0D0#E2B1D8BAC33E
(1731793464.952006) can_bridge 0D1#1BAE252AEBD4
(1731793464.952650) can_bridge 198#6D27302DCBAE
(1731793464.953689) can_bridge 199#2AEB6A1B6F20
(1731793464.954271) can_bridge 1B8#0001020304
(1731793464.955349) can_bridge 1B9#0001020304
(1731793464.955943) can_bridge 210#00
(1731793464.956995) can_bridge 211#00
(1731793464.957581) can_bridge 218#00
(1731793464.958736) can_bridge 219#00
(1731793464.959265) can_bridge 220#00
(1731793464.960709) can_bridge 221#00
(1731793464.960908) can_bridge 0D8#2301020304
(1731793464.962369) can_bridge 0D9#2301020304
(1731793464.962598) can_bridge 0D0#7D34F0D9F6B0
(1731793464.964218) can_bridge 0D1#BA519040C39B
(1731793464.964518) can_bridge 198#0D5339696E4F
(1731793464.966272) can_bridge 199#B51FAC4B6CA8
(1731793464.966441) can_bridge 1B8#0001020304
(1731793464.967899) can_bridge 1B9#0001020304
(1731793464.968088) can_bridge 210#00
(1731793464.969536) can_bridge 211#00
(1731793464.969782) can_bridge 218#00
(1731793464.971307) can_bridge 219#00
(1731793464.971636) can_bridge 220#00
(1731793464.973303) can_bridge 221#00
(1731793464.973512) can_bridge 0D8#2301020304
(1731793464.975010) can_bridge 0D9#2301020304
(1731793464.975250) can_bridge 0D0#6900650A78A3
(1731793464.976901) can_bridge 0D1#1E8297E521EF
(1731793464.977113) can_bridge 198#32760A270F51
(1731793464.978734) can_bridge 199#1FCC6F6B68A9
(1731793464.979114) can_bridge 1B8#0001020304
(1731793464.980735) can_bridge 1B9#0001020304
(1731793464.980946) can_bridge 210#00
(1731793464.982396) can_bridge 211#00
(1731793464.982587) can_bridge 218#00
(1731793464.984023) can_bridge 219#00
(1731793464.984224) can_bridge 220#00
(1731793464.985704) can_bridge 221#00
(1731793464.985939) can_bridge 0D8#2301020304
(1731793464.987425) can_bridge 0D9#2301020304
(1731793464.987749) can_bridge 0D0#F136DE5C5283
(1731793464.989487) can_bridge 0D1#2503AEE0821E
(1731793464.989846) can_bridge 198#8B72582680B1
(1731793464.991266) can_bridge 199#3ACC7477F04C
(1731793464.991508) can_bridge 1B8#0001020304
(1731793464.992940) can_bridge 1B9#0001020304
(1731793464.993517) can_bridge 210#00
(1731793464.994696) can_bridge 211#00
(1731793464.995309) can_bridge 218#00
(1731793464.996744) can_bridge 219#00
(1731793464.997787) can_bridge 220#00
(1731793464.998429) can_bridge 221#00
(1731793464.999474) can_bridge 0D8#2301020304
(1731793465.000321) can_bridge 0D9#2301020304
(1731793465.001170) can_bridge 0D0#E6E7B2D3A840
(1731793465.002236) can_bridge 0D1#0B32B01563C8
(1731793465.003016) can_bridge 198#002AB2879D7B
(1731793465.004477) can_bridge 199#FAA2329B0C2B
(1731793465.005165) can_bridge 1B8#0001020304
(1731793465.006213) can_bridge 1B9#0001020304
(1731793465.006836) can_bridge 210#00
(1731793465.007902) can_bridge 211#00
(1731793465.008607) can_bridge 218#00
(1731793465.009629) can_bridge 219#00
(1731793465.010270) can_bridge 220#00
(1731793465.011404) can_bridge 221#00
(1731793465.011935) can_bridge 0D8#2301020304
(1731793465.013390) can_bridge 0D9#2301020304
(1731793465.013877) can_bridge 0D0#C02B1E2C8E88
(1731793465.015153) can_bridge 0D1#C70F060528FE
(1731793465.015833) can_bridge 198#5C04CCF4F62E
(1731793465.016892) can_bridge 199#3D2240206F2A
(1731793465.017546) can_bridge 1B8#0001020304
(1731793465.018690) can_bridge 1B9#0001020304
(1731793465.019269) can_bridge 210#00
(1731793465.020577) can_bridge 211#00
(1731793465.021100) can_bridge 218#00
(1731793465.022362) can_bridge 219#00
(1731793465.022991) can_bridge 220#00
(1731793465.024040) can_bridge 221#00
(1731793465.024736) can_bridge 0D8#2301020304
(1731793465.025775) can_bridge 0D9#2301020304
(1731793465.026444) can_bridge 0D0#ABFE54DE7C42
(1731793465.027560) can_bridge 0D1#2E35B80B569A
(1731793465.028426) can_bridge 198#01EBFA5AEEEB
(1731793465.029393) can_bridge 199#334CEC29FBDB
(1731793465.030246) can_bridge 1B8#0001020304
(1731793465.031080) can_bridge 1B9#0001020304
(1731793465.031936) can_bridge 210#00
(1731793465.032723) can_bridge 211#00
(1731793465.033700) can_bridge 218#00
(1731793465.034380) can_bridge 219#00
(1731793465.035533) can_bridge 220#00
(1731793465.036369) can_bridge 221#00
(1731793465.037503) can_bridge 0D8#2301020304
(1731793465.038513) can_bridge 0D9#2301020304
(1731793465.039255) can_bridge 0D0#B3A6A39DCB79
(1731793465.040168) can_bridge 0D1#BC29EAA77DDC
(1731793465.041029) can_bridge 198#90602F5B0520
(1731793465.042057) can_bridge 199#51048B58773B
(1731793465.042905) can_bridge 1B8#0001020304
(1731793465.043889) can_bridge 1B9#0001020304
(1731793465.044820) can_bridge 210#00
(1731793465.045542) can_bridge 211#00
(1731793465.046502) can_bridge 218#00
(1731793465.047161) can_bridge 219#00
(1731793465.048148) can_bridge 220#00
(1731793465.048891) can_bridge 221#00
(1731793465.049925) can_bridge 0D8#2301020304
(1731793465.050531) can_bridge 0D9#2301020304
(1731793465.052006) can_bridge 0D0#119B66FE8472
(1731793465.052803) can_bridge 0D1#9A14BADAB3D1
(1731793465.053993) can_bridge 198#6FDB900A3133
(1731793465.054632) can_bridge 199#E7962AD8819C
(1731793465.055669) can_bridge 1B8#0001020304
(1731793465.056269) can_bridge 1B9#0001020304
(1731793465.057290) can_bridge 210#00
(1731793465.058009) can_bridge 211#00
(1731793465.059003) can_bridge 218#00
(1731793465.059796) can_bridge 219#00
(1731793465.060814) can_bridge 220#00
(1731793465.061451) can_bridge 221#00
(1731793465.062454) can_bridge 0D8#2301020304
(1731793465.063082) can_bridge 0D9#2301020304
(1731793465.064108) can_bridge 0D0#0BF2D986F59C
(1731793465.064751) can_bridge 0D1#A3B1A8766165
(1731793465.065808) can_bridge 198#1C5379CB5BC3
(1731793465.066425) can_bridge 199#863ED1A4DB41
(1731793465.067508) can_bridge 1B8#0001020304
(1731793465.068459) can_bridge 1B9#0001020304
(1731793465.069544) can_bridge 210#00
(1731793465.070501) can_bridge 211#00
(1731793465.071268) can_bridge 218#00
(1731793465.072176) can_bridge 219#00
(1731793465.072979) can_bridge 220#00
(1731793465.073981) can_bridge 221#00
(1731793465.074746) can_bridge 0D8#2301020304
(1731793465.075837) can_bridge 0D9#2301020304
(1731793465.076894) can_bridge 0D0#17EFC75BA5AB
(1731793465.077947) can_bridge 0D1#3568FA813192
(1731793465.078968) can_bridge 198#80D453B4616B
(1731793465.079763) can_bridge 199#3A5D877AD7BB
(1731793465.080641) can_bridge 1B8#0001020304
(1731793465.081431) can_bridge 1B9#0001020304
(1731793465.082324) can_bridge 210#00
(1731793465.083256) can_bridge 211#00
(1731793465.084231) can_bridge 218#00
(1731793465.085180) can_bridge 219#00
(1731793465.085993) can_bridge 220#00
(1731793465.086864) can_bridge 221#00
(1731793465.087662) can_bridge 0D8#2301020304
(1731793465.088542) can_bridge 0D9#2301020304
(1731793465.089342) can_bridge 0D0#7B41FC564C10
(1731793465.090268) can_bridge 0D1#C23593116EB3
(1731793465.091086) can_bridge 198#25430106633A
(1731793465.092128) can_bridge 199#005AA03D0698
(1731793465.093166) can_bridge 1B8#0001020304
(1731793465.093858) can_bridge 1B9#0001020304
(1731793465.094790) can_bridge 210#00
(1731793465.095492) can_bridge 211#00
(1731793465.096401) can_bridge 218#00
(1731793465.097078) can_bridge 219#00
(1731793465.098021) can_bridge 220#00
(1731793465.098663) can_bridge 221#00
(1731793465.099816) can_bridge 0D8#2301020304
(1731793465.100844) can_bridge 0D9#2301020304
(1731793465.101476) can_bridge 0D0#3232ABB5652F
(1731793465.102437) can_bridge 0D1#A4CD9EA42D4E
(1731793465.103054) can_bridge 198#F818085409E6
(1731793465.104007) can_bridge 199#741BA14FF002
(1731793465.104613) can_bridge 1B8#0001020304
(1731793465.105539) can_bridge 1B9#0001020304
(1731793465.106173) can_bridge 210#00
(1731793465.107174) can_bridge 211#00
(1731793465.108551) can_bridge 218#00
(1731793465.109026) can_bridge 219#00
(1731793465.110280) can_bridge 220#00
(1731793465.110742) can_bridge 221#00
(1731793465.111979) can_bridge 0D8#2301020304
(1731793465.112465) can_bridge 0D9#2301020304
(1731793465.113738) can_bridge 0D0#50DCB78A3CEC
(1731793465.114397) can_bridge 0D1#17ABFDCB5D36
(1731793465.115592) can_bridge 198#3F633DC338F6
(1731793465.116602) can_bridge 199#3FA24C86BD1C
(1731793465.117296) can_bridge 1B8#0001020304
(1731793465.118185) can_bridge 1B9#0001020304
(1731793465.118912) can_bridge 210#00
(1731793465.119743) can_bridge 211#00
(1731793465.120562) can_bridge 218#00
(1731793465.121298) can_bridge 219#00
(1731793465.122203) can_bridge 220#00
(1731793465.123154) can_bridge 221#00
(1731793465.124285) can_bridge 0D8#2301020304
(1731793465.125178) can_bridge 0D9#2301020304
(1731793465.126089) can_bridge 0D0#BBF295780EEA
(1731793465.126784) can_bridge 0D1#19AE22541EF0
(1731793465.127690) can_bridge 198#48D97CB08E38
(1731793465.128378) can_bridge 199#D179E7C3D9F1
(1731793465.129272) can_bridge 1B8#0001020304
(1731793465.130032) can_bridge 1B9#0001020304
(1731793465.130907) can_bridge 210#00
(1731793465.131645) can_bridge 211#00
(1731793465.133061) can_bridge 218#00
(1731793465.133279) can_bridge 219#00
(1731793465.134699) can_bridge 220#00
(1731793465.134871) can_bridge 221#00
(1731793465.136736) can_bridge 0D9#2301020304
(1731793465.136818) can_bridge 0D8#2301020304
(1731793465.139065) can_bridge 0D1#5FAD0E54408F
(1731793465.139152) can_bridge 0D0#0FF1CDBC2B15
(1731793465.141555) can_bridge 199#C1CBBE68A656
(1731793465.141805) can_bridge 198#4216C26E734B
(1731793465.143807) can_bridge 1B9#0001020304
(1731793465.144046) can_bridge 1B8#0001020304
(1731793465.146219) can_bridge 211#00
(1731793465.147037) can_bridge 210#00
(1731793465.148411) can_bridge 219#00
(1731793465.148808) can_bridge 218#00
(1731793465.150763) can_bridge 221#00
(1731793465.150836) can_bridge 220#00
(1731793465.152788) can_bridge 0D9#2301020304
(1731793465.153291) can_bridge 0D8#2301020304
(1731793465.154813) can_bridge 0D1#72219CF028CC
(1731793465.155371) can_bridge 0D0#13878372DC96
(1731793465.156968) can_bridge 199#A0AAEB6262B6
(1731793465.157454) can_bridge 198#2D763B1DDB8E
(1731793465.159005) can_bridge 1B9#0001020304
(1731793465.159471) can_bridge 1B8#0001020304
(1731793465.160896) can_bridge 211#00
(1731793465.161262) can_bridge 210#00
(1731793465.162712) can_bridge 219#00
(1731793465.163025) can_bridge 218#00
(1731793465.164736) can_bridge 221#00
(1731793465.165054) can_bridge 220#00
(1731793465.167066) can_bridge 0D8#2301020304
(1731793465.167168) can_bridge 0D9#2301020304
(1731793465.169256) can_bridge 0D1#FB018B282071
(1731793465.169445) can_bridge 0D0#70D5D3A9C5B6
(1731793465.171612) can_bridge 199#62CF17DF8E02
(1731793465.171682) can_bridge 198#74837A34E3F8
(1731793465.173989) can_bridge 1B9#0001020304
(1731793465.174900) can_bridge 1B8#0001020304
(1731793465.175985) can_bridge 211#00
(1731793465.176722) can_bridge 210#00
(1731793465.178074) can_bridge 219#00
(1731793465.178733) can_bridge 218#00
(1731793465.180434) can_bridge 221#00
(1731793465.180863) can_bridge 220#00
(1731793465.182980) can_bridge 0D8#2301020304
(1731793465.183193) can_bridge 0D9#2301020304
(1731793465.185397) can_bridge 0D0#A37F7E4553B3
(1731793465.185446) can_bridge 0D1#B2E5C3AA9421
(1731793465.187420) can_bridge 198#A57041DCFC1A
(1731793465.187997) can_bridge 199#B5B6C193CD47
(1731793465.189393) can_bridge 1B8#0001020304
(1731793465.190314) can_bridge 1B9#0001020304
(1731793465.191353) can_bridge 210#00
(1731793465.192167) can_bridge 211#00
(1731793465.193236) can_bridge 218#00
(1731793465.194024) can_bridge 219#00
(1731793465.195122) can_bridge 220#00
(1731793465.195699) can_bridge 221#00
(1731793465.197290) can_bridge 0D8#2301020304
(1731793465.198341) can_bridge 0D9#2301020304
(1731793465.199234) can_bridge 0D0#64F1A293AB2E
(1731793465.200194) can_bridge 0D1#A01B666795E0
(1731793465.201265) can_bridge 198#1D66E9A58D54
(1731793465.202300) can_bridge 199#DD9E824B2A49
(1731793465.203188) can_bridge 1B8#0001020304
(1731793465.204135) can_bridge 1B9#0001020304
(1731793465.205117) can_bridge 210#00
(1731793465.206483) can_bridge 211#00
(1731793465.207068) can_bridge 218#00
(1731793465.208114) can_bridge 219#00
(1731793465.208650) can_bridge 220#00
(1731793465.209932) can_bridge 221#00
(1731793465.210506) can_bridge 0D8#2301020304
(1731793465.211558) can_bridge 0D9#2301020304
(1731793465.212292) can_bridge 0D0#B825B21FB32C
(1731793465.213336) can_bridge 0D1#29EE57FDC0C8
(1731793465.214334) can_bridge 198#5FDB1C7D46C4
(1731793465.215093) can_bridge 199#88E3C38D017C
(1731793465.215921) can_bridge 1B8#0001020304
(1731793465.216729) can_bridge 1B9#0001020304
(1731793465.217486) can_bridge 210#00
(1731793465.218485) can_bridge 211#00
(1731793465.219083) can_bridge 218#00
(1731793465.220656) can_bridge 219#00
(1731793465.220975) can_bridge 220#00
(1731793465.222665) can_bridge 0D8#2301020304
(1731793465.222835) can_bridge 221#00
(1731793465.224624) can_bridge 0D9#2301020304
(1731793465.224801) can_bridge 0D0#E49270AD9B70
(1731793465.226629) can_bridge 198#A7C743CF56F6
(1731793465.226782) can_bridge 0D1#CAD1E4D8DDD9
(1731793465.228688) can_bridge 199#AD3872581B54
(1731793465.228750) can_bridge 1B8#0001020304
(1731793465.230748) can_bridge 210#00
(1731793465.230884) can_bridge 1B9#0001020304
(1731793465.232672) can_bridge 211#00
(1731793465.232833) can_bridge 218#00
(1731793465.234552) can_bridge 220#00
(1731793465.234711) can_bridge 219#00
(1731793465.236610) can_bridge 221#00
(1731793465.236689) can_bridge 0D8#2301020304
(1731793465.239060) can_bridge 0D9#2301020304
(1731793465.239118) can_bridge 0D0#7CC4A80DE5AD
(1731793465.240892) can_bridge 0D1#25B727B720AA
(1731793465.241329) can_bridge 198#64798C1ED1DC
(1731793465.242722) can_bridge 199#57467FE7BE15
(1731793465.243067) can_bridge 1B8#0001020304
(1731793465.244619) can_bridge 1B9#0001020304
(1731793465.244900) can_bridge 210#00
(1731793465.246851) can_bridge 211#00
(1731793465.246921) can_bridge 218#00
(1731793465.248609) can_bridge 219#00
(1731793465.248912) can_bridge 220#00
(1731793465.250469) can_bridge 0D8#2301020304
(1731793465.250624) can_bridge 221#00
(1731793465.252556) can_bridge 0D9#2301020304
(1731793465.252635) can_bridge 0D0#7FB0E5A277BE
(1731793465.254573) can_bridge 0D1#E1D9F12E760D
(1731793465.254784) can_bridge 198#C431D64683C7
(1731793465.256253) can_bridge 199#761CBAD6CC64
(1731793465.256422) can_bridge 1B8#0001020304
(1731793465.257963) can_bridge 1B9#0001020304
(1731793465.258142) can_bridge 210#00
(1731793465.259509) can_bridge 211#00
(1731793465.259677) can_bridge 218#00
(1731793465.261159) can_bridge 219#00
(1731793465.261279) can_bridge 220#00
(1731793465.263015) can_bridge 221#00
(1731793465.263164) can_bridge 0D8#2301020304
(1731793465.264597) can_bridge 0D9#2301020304
(1731793465.264793) can_bridge 0D0#FBE0C93B81ED
(1731793465.266232) can_bridge 0D1#36526A17D517
(1731793465.266440) can_bridge 198#F204AD927625
(1731793465.267873) can_bridge 199#19FE500B6A2D
(1731793465.268057) can_bridge 1B8#0001020304
(1731793465.269534) can_bridge 1B9#0001020304
(1731793465.269725) can_bridge 210#00
(1731793465.271377) can_bridge 211#00
(1731793465.271547) can_bridge 218#00
(1731793465.272949) can_bridge 219#00
(1731793465.273123) can_bridge 220#00
(1731793465.274570) can_bridge 221#00
(1731793465.274743) can_bridge 0D8#2301020304
(1731793465.276260) can_bridge 0D9#2301020304
(1731793465.276539) can_bridge 0D0#A217C9CC6A84
(1731793465.278124) can_bridge 0D1#8661C28BFADF
(1731793465.278313) can_bridge 198#5624524820B3
(1731793465.279721) can_bridge 199#CFCC3E803C3B
(1731793465.279905) can_bridge 1B8#0001020304
(1731793465.281272) can_bridge 1B9#0001020304
(1731793465.281444) can_bridge 210#00
(1731793465.282853) can_bridge 211#00
(1731793465.283021) can_bridge 218#00
(1731793465.284541) can_bridge 219#00
(1731793465.284767) can_bridge 220#00
(1731793465.286429) can_bridge 221#00
(1731793465.286595) can_bridge 0D8#2301020304
(1731793465.288023) can_bridge 0D9#2301020304
(1731793465.288241) can_bridge 0D0#B8B4DBEE483D
(1731793465.289715) can_bridge 0D1#AA681F1519B9
(1731793465.289957) can_bridge 198#DC51A2739B43
(1731793465.291350) can_bridge 199#D655FE0116C3
(1731793465.291538) can_bridge 1B8#0001020304
(1731793465.293069) can_bridge 1B9#0001020304
(1731793465.293267) can_bridge 210#00
(1731793465.294940) can_bridge 211#00
(1731793465.295118) can_bridge 218#00
(1731793465.296560) can_bridge 219#00
(1731793465.296729) can_bridge 220#00
(1731793465.298300) can_bridge 221#00
(1731793465.298475) can_bridge 0D8#2301020304
(1731793465.299917) can_bridge 0D9#2301020304
(1731793465.300149) can_bridge 0D0#6D261654EAB2
(1731793465.301888) can_bridge 0D1#7D6879FDA7B4
(1731793465.302125) can_bridge 198#3C2AADB95A0C
(1731793465.303525) can_bridge 199#9CDB12F4C816
(1731793465.303715) can_bridge 1B8#0001020304
(1731793465.305110) can_bridge 1B9#0001020304
(1731793465.305299) can_bridge 210#00
(1731793465.306761) can_bridge 211#00
(1731793465.306932) can_bridge 218#00
(1731793465.308401) can_bridge 219#00
(1731793465.308675) can_bridge 220#00
(1731793465.310363) can_bridge 221#00
(1731793465.310561) can_bridge 0D8#2301020304
(1731793465.311980) can_bridge 0D9#2301020304
(1731793465.312204) can_bridge 0D0#E97B2C897CA1
(1731793465.313657) can_bridge 0D1#D1D365925EF5
(1731793465.313970) can_bridge 198#BE69A64DB7E8
(1731793465.315365) can_bridge 199#A8B78DCCD707
(1731793465.315591) can_bridge 1B8#0001020304
(1731793465.317059) can_bridge 1B9#0001020304
(1731793465.317281) can_bridge 210#00
(1731793465.318833) can_bridge 211#00
(1731793465.319012) can_bridge 218#00
(1731793465.320409) can_bridge 219#00
(1731793465.320612) can_bridge 220#00
(1731793465.322113) can_bridge 221#00
(1731793465.322291) can_bridge 0D8#2301020304
(1731793465.323702) can_bridge 0D9#2301020304
(1731793465.323931) can_bridge 0D0#4782B2FB05D5
(1731793465.325546) can_bridge 0D1#67E670A84192
(1731793465.325951) can_bridge 198#8E9203F20B98
(1731793465.327351) can_bridge 199#646ED1AC84F4
(1731793465.327560) can_bridge 1B8#0001020304
(1731793465.328931) can_bridge 1B9#0001020304
(1731793465.329108) can_bridge 210#00
(1731793465.330530) can_bridge 211#00
(1731793465.330714) can_bridge 218#00
(1731793465.332172) can_bridge 219#00
(1731793465.332389) can_bridge 220#00
(1731793465.334070) can_bridge 221#00
(1731793465.334258) can_bridge 0D8#2301020304
(1731793465.335661) can_bridge 0D9#2301020304
(1731793465.335891) can_bridge 0D0#661CA359FFCA
(1731793465.337268) can_bridge 0D1#5E3C6F495A4D
(1731793465.337482) can_bridge 198#72BE0853C141
(1731793465.338968) can_bridge 199#B1034A24D73A
(1731793465.339180) can_bridge 1B8#0001020304
(1731793465.340947) can_bridge 1B9#0001020304
(1731793465.341135) can_bridge 210#00
(1731793465.342565) can_bridge 211#00
(1731793465.342743) can_bridge 218#00
(1731793465.344125) can_bridge 219#00
(1731793465.344305) can_bridge 220#00
(1731793465.345746) can_bridge 221#00
(1731793465.345954) can_bridge 0D8#2301020304
(1731793465.347414) can_bridge 0D9#2301020304
(1731793465.347660) can_bridge 0D0#5FE753B5FC50
(1731793465.349322) can_bridge 0D1#6906A677684A
(1731793465.349524) can_bridge 198#B770E8037B7B
(1731793465.350940) can_bridge 199#E719DC19C727
(1731793465.351130) can_bridge 1B8#0001020304
(1731793465.352543) can_bridge 1B9#0001020304
(1731793465.352697) can_bridge 210#00
(1731793465.354180) can_bridge 211#00
(1731793465.354352) can_bridge 218#00
(1731793465.355881) can_bridge 219#00
(1731793465.356486) can_bridge 220#00
(1731793465.357748) can_bridge 221#00
(1731793465.358251) can_bridge 0D8#2301020304
(1731793465.359296) can_bridge 0D9#2301020304
(1731793465.359830) can_bridge 0D0#8DC57E10B3F7
(1731793465.360877) can_bridge 0D1#81DB0B6936A2
(1731793465.361452) can_bridge 198#262D1B3C2480
(1731793465.362498) can_bridge 199#54A233A3ECFD
(1731793465.363105) can_bridge 1B8#0001020304
(1731793465.364128) can_bridge 1B9#0001020304
(1731793465.364894) can_bridge 210#00
(1731793465.365794) can_bridge 211#00
(1731793465.366458) can_bridge 218#00
(1731793465.367335) can_bridge 219#00
(1731793465.367986) can_bridge 220#00
(1731793465.368881) can_bridge 221#00
(1731793465.369512) can_bridge 0D8#2301020304
(1731793465.370502) can_bridge 0D9#2301020304
(1731793465.371151) can_bridge 0D0#D8A532959F03
(1731793465.372514) can_bridge 0D1#44C44F5F1798
(1731793465.372994) can_bridge 198#813FEB58EC1A
(1731793465.374237) can_bridge 199#DBA29ED7FF17
(1731793465.374744) can_bridge 1B8#0001020304
(1731793465.375791) can_bridge 1B9#0001020304
(1731793465.376283) can_bridge 210#00
(1731793465.377332) can_bridge 211#00
(1731793465.377967) can_bridge 218#00
(1731793465.378959) can_bridge 219#00
(1731793465.379699) can_bridge 220#00
(1731793465.380692) can_bridge 221#00
(1731793465.381260) can_bridge 0D8#2301020304
(1731793465.382239) can_bridge 0D9#2301020304
(1731793465.382847) can_bridge 0D0#A71D19099F3F
(1731793465.383805) can_bridge 0D1#B1FCBAC44D59
(1731793465.384519) can_bridge 198#7FBF57097DE7
(1731793465.385402) can_bridge 199#C1F59CE4CDB5
(1731793465.386119) can_bridge 1B8#0001020304
(1731793465.387019) can_bridge 1B9#0001020304
(1731793465.387894) can_bridge 210#00
(1731793465.388747) can_bridge 211#00
(1731793465.389481) can_bridge 218#00
(1731793465.390324) can_bridge 219#00
(1731793465.391021) can_bridge 220#00
(1731793465.391862) can_bridge 221#00
(1731793465.392561) can_bridge 0D8#2301020304
(1731793465.393390) can_bridge 0D9#2301020304
(1731793465.394150) can_bridge 0D0#3EBC1E35D937
(1731793465.395025) can_bridge 0D1#D10E9FCD7212
(1731793465.395885) can_bridge 198#24AC32FF0DCD
(1731793465.396913) can_bridge 199#B81239E8A318
(1731793465.397505) can_bridge 1B8#0001020304
(1731793465.398505) can_bridge 1B9#0001020304
(1731793465.399052) can_bridge 210#00
(1731793465.400047) can_bridge 211#00
(1731793465.400587) can_bridge 218#00
(1731793465.401621) can_bridge 219#00
(1731793465.402189) can_bridge 220#00
(1731793465.403248) can_bridge 221#00
(1731793465.404144) can_bridge 0D8#2301020304
(1731793465.404929) can_bridge 0D9#2301020304
(1731793465.405904) can_bridge 0D0#65B070F01635
(1731793465.406545) can_bridge 0D1#8E22366DA5A6
(1731793465.407485) can_bridge 198#346D2557F763
(1731793465.408116) can_bridge 199#8E0EECB22C4A
(1731793465.409023) can_bridge 1B8#0001020304
(1731793465.409694) can_bridge 1B9#0001020304
(1731793465.410556) can_bridge 210#00
(1731793465.411220) can_bridge 211#00
(1731793465.412075) can_bridge 218#00
(1731793465.412760) can_bridge 219#00
(1731793465.413647) can_bridge 220#00
(1731793465.414348) can_bridge 221#00
(1731793465.415193) can_bridge 0D8#2301020304
(1731793465.415909) can_bridge 0D9#2301020304
(1731793465.416777) can_bridge 0D0#327643937537
(1731793465.417479) can_bridge 0D1#89C6D16181F4
(1731793465.418355) can_bridge 198#692C4BA9B07A
(1731793465.419050) can_bridge 199#1C162CED6167
(1731793465.419891) can_bridge 1B8#0001020304
(1731793465.420580) can_bridge 1B9#0001020304
(1731793465.421419) can_bridge 210#00
(1731793465.422126) can_bridge 211#00
(1731793465.422952) can_bridge 218#00
(1731793465.423653) can_bridge 219#00
(1731793465.424526) can_bridge 220#00
(1731793465.425245) can_bridge 221#00
(1731793465.426077) can_bridge 0D8#2301020304
(1731793465.426768) can_bridge 0D9#2301020304
(1731793465.427636) can_bridge 0D0#CE6FF2F34F89
(1731793465.428322) can_bridge 0D1#5240FD7A2DE4
(1731793465.429204) can_bridge 198#A31723400AE8
(1731793465.430019) can_bridge 199#5E14D8E5BFE9
(1731793465.430756) can_bridge 1B8#0001020304
(1731793465.431555) can_bridge 1B9#0001020304
(1731793465.432280) can_bridge 210#00
(1731793465.433093) can_bridge 211#00
(1731793465.433903) can_bridge 218#00
(1731793465.434638) can_bridge 219#00
(1731793465.435435) can_bridge 220#00
(1731793465.436167) can_bridge 221#00
(1731793465.437041) can_bridge 0D8#2301020304
(1731793465.438359) can_bridge 0D9#2301020304
(1731793465.438916) can_bridge 0D0#6B5350DA5225
(1731793465.439988) can_bridge 0D1#677A8C2453E3
(1731793465.440563) can_bridge 198#9BCC13A56587
(1731793465.442006) can_bridge 199#3385310E62C5
(1731793465.442199) can_bridge 1B8#0001020304
(1731793465.443593) can_bridge 1B9#0001020304
(1731793465.443962) can_bridge 210#00
(1731793465.445972) can_bridge 211#00
(1731793465.446157) can_bridge 218#00
(1731793465.447722) can_bridge 219#00
(1731793465.447913) can_bridge 220#00
(1731793465.449340) can_bridge 221#00
(1731793465.449522) can_bridge 0D8#2301020304
(1731793465.450941) can_bridge 0D9#2301020304
(1731793465.451167) can_bridge 0D0#1160728E2A14
(1731793465.452574) can_bridge 0D1#0B17BACA074C
(1731793465.452785) can_bridge 198#C03FE1C09283
(1731793465.454524) can_bridge 199#37EFD9C68326
(1731793465.454788) can_bridge 1B8#0001020304
(1731793465.456248) can_bridge 1B9#0001020304
(1731793465.456395) can_bridge 210#00
(1731793465.457910) can_bridge 211#00
(1731793465.458143) can_bridge 218#00
(1731793465.459507) can_bridge 219#00
(1731793465.459713) can_bridge 220#00
(1731793465.461258) can_bridge 221#00
(1731793465.461478) can_bridge 0D8#2301020304
(1731793465.463001) can_bridge 0D9#2301020304
(1731793465.463219) can_bridge 0D0#9B4B79A5E577
(1731793465.464656) can_bridge 0D1#176850727E59
(1731793465.464845) can_bridge 198#B51446765930
(1731793465.466275) can_bridge 199#740CF2207376
(1731793465.466449) can_bridge 1B8#0001020304
(1731793465.467838) can_bridge 1B9#0001020304
(1731793465.468047) can_bridge 210#00
(1731793465.470015) can_bridge 211#00
(1731793465.470195) can_bridge 218#00
(1731793465.471741) can_bridge 219#00
(1731793465.471926) can_bridge 220#00
(1731793465.473320) can_bridge 221#00
(1731793465.473502) can_bridge 0D8#2301020304
(1731793465.474889) can_bridge 0D9#2301020304
(1731793465.475114) can_bridge 0D0#5B20665C014C
(1731793465.476628) can_bridge 0D1#45BBB50D4E62
(1731793465.476815) can_bridge 198#682EED356252
(1731793465.478511) can_bridge 199#0034611707C4
(1731793465.478696) can_bridge 1B8#0001020304
(1731793465.480562) can_bridge 1B9#0001020304
(1731793465.480679) can_bridge 210#00
(1731793465.482295) can_bridge 211#00
(1731793465.482640) can_bridge 218#00
(1731793465.484022) can_bridge 219#00
(1731793465.484372) can_bridge 220#00
(1731793465.485822) can_bridge 221#00
(1731793465.486192) can_bridge 0D8#2301020304
(1731793465.487593) can_bridge 0D9#2301020304
(1731793465.488002) can_bridge 0D0#FF2351ED16D3
(1731793465.489673) can_bridge 198#8A7A559EF2D5
(1731793465.489829) can_bridge 0D1#DF69E4D92CFE
(1731793465.491609) can_bridge 199#9515CF38D8BE
(1731793465.491793) can_bridge 1B8#0001020304
(1731793465.493558) can_bridge 1B9#0001020304
(1731793465.493705) can_bridge 210#00
(1731793465.495274) can_bridge 211#00
(1731793465.495614) can_bridge 218#00
(1731793465.497004) can_bridge 219#00
(1731793465.497351) can_bridge 220#00
(1731793465.498737) can_bridge 221#00
(1731793465.499086) can_bridge 0D8#2301020304
(1731793465.500509) can_bridge 0D9#2301020304
(1731793465.500867) can_bridge 0D0#B96DFB486891
(1731793465.502259) can_bridge 0D1#A53EF9E625E1
(1731793465.502637) can_bridge 198#6FFDF1DF3EDC
(1731793465.504027) can_bridge 199#EB345452FEF2
(1731793465.504377) can_bridge 1B8#0001020304
(1731793465.505852) can_bridge 1B9#0001020304
(1731793465.506300) can_bridge 210#00
(1731793465.507581) can_bridge 211#00
(1731793465.508172) can_bridge 218#00
(1731793465.509232) can_bridge 219#00
(1731793465.509833) can_bridge 220#00
(1731793465.510879) can_bridge 221#00
(1731793465.511445) can_bridge 0D8#2301020304
(1731793465.512553) can_bridge 0D9#2301020304
(1731793465.513194) can_bridge 0D0#F8990B8184E5
(1731793465.514243) can_bridge 0D1#82FCAF1BAF87
(1731793465.514877) can_bridge 198#9BC22649981E
(1731793465.515917) can_bridge 199#F78BFB61EA4F
(1731793465.516525) can_bridge 1B8#0001020304
(1731793465.517560) can_bridge 1B9#0001020304
(1731793465.518187) can_bridge 210#00
(1731793465.519200) can_bridge 211#00
(1731793465.519785) can_bridge 218#00
(1731793465.520815) can_bridge 219#00
(1731793465.521393) can_bridge 220#00
(1731793465.522441) can_bridge 221#00
(1731793465.523006) can_bridge 0D8#2301020304
(1731793465.524053) can_bridge 0D9#2301020304
(1731793465.524730) can_bridge 0D0#482C2E14A56C
(1731793465.525761) can_bridge 0D1#E6E5361A6590
(1731793465.526362) can_bridge 198#1DF1017956D0
(1731793465.527426) can_bridge 199#839E7E9C0028
(1731793465.527998) can_bridge 1B8#0001020304
(1731793465.529045) can_bridge 1B9#0001020304
(1731793465.529611) can_bridge 210#00
(1731793465.530667) can_bridge 211#00
(1731793465.531225) can_bridge 218#00
(1731793465.532274) can_bridge 219#00
(1731793465.532805) can_bridge 220#00
(1731793465.534069) can_bridge 221#00
(1731793465.534534) can_bridge 0D8#2301020304
(1731793465.535772) can_bridge 0D9#2301020304
(1731793465.536239) can_bridge 0D0#744453743917
(1731793465.537490) can_bridge 0D1#296165BA340A
(1731793465.538111) can_bridge 198#0DE4632CD49B
(1731793465.539164) can_bridge 199#B6A7CC882728
(1731793465.539735) can_bridge 1B8#0001020304
(1731793465.540853) can_bridge 1B9#0001020304
(1731793465.541317) can_bridge 210#00
(1731793465.542717) can_bridge 211#00
(1731793465.543072) can_bridge 218#00
(1731793465.544470) can_bridge 219#00
(1731793465.544775) can_bridge 220#00
(1731793465.546145) can_bridge 221#00
(1731793465.546467) can_bridge 0D8#2301020304
(1731793465.547806) can_bridge 0D9#2301020304
(1731793465.548205) can_bridge 0D0#FD4B95E33386
(1731793465.549580) can_bridge 0D1#B5F01FC3809F
(1731793465.550217) can_bridge 198#0259A887CE80
(1731793465.551269) can_bridge 199#C16135FEA277
(1731793465.551827) can_bridge 1B8#0001020304
(1731793465.552880) can_bridge 1B9#0001020304
(1731793465.553446) can_bridge 210#00
(1731793465.554493) can_bridge 211#00
(1731793465.555058) can_bridge 218#00
(1731793465.556108) can_bridge 219#00
(1731793465.556757) can_bridge 220#00
(1731793465.557794) can_bridge 221#00
(1731793465.558340) can_bridge 0D8#2301020304
(1731793465.559414) can_bridge 0D9#2301020304
(1731793465.560025) can_bridge 0D0#0EF7827306B7
(1731793465.561075) can_bridge 0D1#CD947263913B
(1731793465.561668) can_bridge 198#6573914D1B4E
(1731793465.562728) can_bridge 199#8FA584114C36
(1731793465.563293) can_bridge 1B8#0001020304
(1731793465.564341) can_bridge 1B9#0001020304
(1731793465.564998) can_bridge 210#00
(1731793465.566042) can_bridge 211#00
(1731793465.566564) can_bridge 218#00
(1731793465.567584) can_bridge 219#00
(1731793465.568080) can_bridge 220#00
(1731793465.569125) can_bridge 221#00
(1731793465.569670) can_bridge 0D8#2301020304
(1731793465.570695) can_bridge 0D9#2301020304
(1731793465.571243) can_bridge 0D0#0345077FBF3E
(1731793465.572269) can_bridge 0D1#9AF84DB7580E
(1731793465.572880) can_bridge 198#5E4D19A2BAF7
(1731793465.573918) can_bridge 199#30B6A05ABE6A
(1731793465.574428) can_bridge 1B8#0001020304
(1731793465.575459) can_bridge 1B9#0001020304
(1731793465.575959) can_bridge 210#00
(1731793465.577000) can_bridge 211#00
(1731793465.577492) can_bridge 218#00
(1731793465.578532) can_bridge 219#00
(1731793465.579023) can_bridge 220#00
(1731793465.580075) can_bridge 221#00
(1731793465.580625) can_bridge 0D8#2301020304
(1731793465.581663) can_bridge 0D9#2301020304
(1731793465.582225) can_bridge 0D0#92AB34AC4B09
(1731793465.583239) can_bridge 0D1#53C035755DD7
(1731793465.583781) can_bridge 198#FB533D5E4408
(1731793465.584815) can_bridge 199#A273FEB98A0B
(1731793465.585385) can_bridge 1B8#0001020304
(1731793465.586455) can_bridge 1B9#0001020304
(1731793465.587038) can_bridge 210#00
(1731793465.588203) can_bridge 211#00
(1731793465.588689) can_bridge 218#00
(1731793465.590382) can_bridge 219#00
(1731793465.590600) can_bridge 220#00
(1731793465.591999) can_bridge 221#00
(1731793465.592201) can_bridge 0D8#2301020304
(1731793465.593688) can_bridge 0D9#2301020304
(1731793465.593922) can_bridge 0D0#86B594782B58
(1731793465.595302) can_bridge 0D1#41FE946A551D
(1731793465.595493) can_bridge 198#410FE2E0C0AE
(1731793465.596916) can_bridge 199#9E448612235E
(1731793465.597105) can_bridge 1B8#0001020304
(1731793465.598518) can_bridge 1B9#0001020304
(1731793465.598700) can_bridge 210#00
(1731793465.600074) can_bridge 211#00
(1731793465.600254) can_bridge 218#00
(1731793465.601682) can_bridge 219#00
(1731793465.601890) can_bridge 220#00
(1731793465.603272) can_bridge 221#00
(1731793465.603451) can_bridge 0D8#2301020304
(1731793465.604836) can_bridge 0D9#2301020304
(1731793465.605038) can_bridge 0D0#B1120A67F60C
(1731793465.606444) can_bridge 0D1#C64C88F0E54E
(1731793465.606652) can_bridge 198#0ADB7D5086FA
(1731793465.608034) can_bridge 199#53856A08B1E8
(1731793465.608213) can_bridge 1B8#0001020304
(1731793465.609626) can_bridge 1B9#0001020304
(1731793465.609846) can_bridge 210#00
(1731793465.611202) can_bridge 211#00
(1731793465.611381) can_bridge 218#00
(1731793465.612761) can_bridge 219#00
(1731793465.612943) can_bridge 220#00
(1731793465.614328) can_bridge 221#00
(1731793465.614513) can_bridge 0D8#2301020304
(1731793465.615881) can_bridge 0D9#2301020304
(1731793465.616087) can_bridge 0D0#A65C2915D26D
(1731793465.617479) can_bridge 0D1#19FF2FC09AC9
(1731793465.617726) can_bridge 198#345148300E0B
(1731793465.619086) can_bridge 199#9B9F44991B40
(1731793465.619264) can_bridge 1B8#0001020304
(1731793465.620650) can_bridge 1B9#0001020304
(1731793465.620830) can_bridge 210#00
(1731793465.622219) can_bridge 211#00
(1731793465.622406) can_bridge 218#00
(1731793465.623857) can_bridge 219#00
(1731793465.624077) can_bridge 220#00
(1731793465.625585) can_bridge 221#00
(1731793465.625822) can_bridge 0D8#2301020304
(1731793465.627197) can_bridge 0D9#2301020304
(1731793465.627397) can_bridge 0D0#269DC594BFF1
(1731793465.628782) can_bridge 0D1#CE2A07CB1B02
(1731793465.628981) can_bridge 198#2571BBD65F68
(1731793465.630382) can_bridge 199#DABC8C60FFCD
(1731793465.630565) can_bridge 1B8#0001020304
(1731793465.631943) can_bridge 1B9#0001020304
(1731793465.632131) can_bridge 210#00
(1731793465.633521) can_bridge 211#00
(1731793465.633734) can_bridge 218#00
(1731793465.635093) can_bridge 219#00
(1731793465.635277) can_bridge 220#00
(1731793465.636665) can_bridge 221#00
(1731793465.636852) can_bridge 0D8#2301020304
(1731793465.638303) can_bridge 0D9#2301020304
(1731793465.638528) can_bridge 0D0#17F01D81C58D
(1731793465.640028) can_bridge 0D1#5E3AC61FF7E2
(1731793465.640219) can_bridge 198#C9388F2EED7B
(1731793465.641709) can_bridge 199#4E05E628C48A
(1731793465.641924) can_bridge 1B8#0001020304
(1731793465.643348) can_bridge 1B9#0001020304
(1731793465.643534) can_bridge 210#00
(1731793465.644900) can_bridge 211#00
(1731793465.645089) can_bridge 218#00
(1731793465.646488) can_bridge 219#00
(1731793465.646671) can_bridge 220#00
(1731793465.648057) can_bridge 221#00
(1731793465.648235) can_bridge 0D8#2301020304
(1731793465.649672) can_bridge 0D9#2301020304
(1731793465.649876) can_bridge 0D0#0A7FEC1D4883
(1731793465.651259) can_bridge 0D1#91D38045677E
(1731793465.651456) can_bridge 198#912FB589F35A
(1731793465.652849) can_bridge 199#E9A74DA687C8
(1731793465.653031) can_bridge 1B8#0001020304
(1731793465.654408) can_bridge 1B9#0001020304
(1731793465.654587) can_bridge 210#00
(1731793465.655979) can_bridge 211#00
(1731793465.656168) can_bridge 218#00
(1731793465.657665) can_bridge 219#00
(1731793465.657843) can_bridge 220#00
(1731793465.659389) can_bridge 221#00
(1731793465.659579) can_bridge 0D8#2301020304
(1731793465.661710) can_bridge 0D9#2301020304
(1731793465.661893) can_bridge 0D0#11B5B3C6695F
(1731793465.663841) can_bridge 0D1#6649A87E041D
(1731793465.663940) can_bridge 198#D8867D108BDC
(1731793465.665568) can_bridge 1B8#0001020304
(1731793465.665862) can_bridge 199#C92D5B7DBC5C
(1731793465.667252) can_bridge 210#00
(1731793465.667452) can_bridge 1B9#0001020304
(1731793465.668834) can_bridge 218#00
(1731793465.669008) can_bridge 211#00
(1731793465.670445) can_bridge 220#00
(1731793465.670618) can_bridge 219#00
(1731793465.672006) can_bridge 0D8#2301020304
(1731793465.672188) can_bridge 221#00
(1731793465.673664) can_bridge 0D0#AD297161EC94
(1731793465.673881) can_bridge 0D9#2301020304
(1731793465.675298) can_bridge 198#7D49F4AC23D8
(1731793465.675518) can_bridge 0D1#63241A4241E6
(1731793465.676880) can_bridge 1B8#0001020304
(1731793465.677109) can_bridge 199#66164D87B250
(1731793465.678465) can_bridge 210#00
(1731793465.678652) can_bridge 1B9#0001020304
(1731793465.680028) can_bridge 218#00
(1731793465.680211) can_bridge 211#00
(1731793465.681639) can_bridge 220#00
(1731793465.681862) can_bridge 219#00
(1731793465.683230) can_bridge 0D8#2301020304
(1731793465.683425) can_bridge 221#00
(1731793465.684850) can_bridge 0D0#EC338953718F
(1731793465.685056) can_bridge 0D9#2301020304
(1731793465.686474) can_bridge 198#1D0B626E9C43
(1731793465.686692) can_bridge 0D1#18B2194708FB
(1731793465.688043) can_bridge 1B8#0001020304
(1731793465.688270) can_bridge 199#034335E464E7
(1731793465.689663) can_bridge 210#00
(1731793465.689883) can_bridge 1B9#0001020304
(1731793465.691245) can_bridge 218#00
(1731793465.691435) can_bridge 211#00
(1731793465.692823) can_bridge 220#00
(1731793465.693012) can_bridge 219#00
(1731793465.694420) can_bridge 0D8#2301020304
(1731793465.694604) can_bridge 221#00
(1731793465.696026) can_bridge 0D0#D462764EC6F6
(1731793465.696208) can_bridge 0D9#2301020304
(1731793465.697675) can_bridge 198#50359BD556DC
(1731793465.697919) can_bridge 0D1#62AD73F3714D
(1731793465.699301) can_bridge 1B8#0001020304
(1731793465.699497) can_bridge 199#51D3D88D74AA
(1731793465.700880) can_bridge 210#00
(1731793465.701069) can_bridge 1B9#0001020304
(1731793465.702459) can_bridge 218#00
(1731793465.702642) can_bridge 211#00
(1731793465.704033) can_bridge 220#00
(1731793465.704215) can_bridge 219#00
(1731793465.705644) can_bridge 0D8#2301020304
(1731793465.705852) can_bridge 221#00
(1731793465.707257) can_bridge 0D0#F4AA9234F181
(1731793465.707447) can_bridge 0D9#2301020304
(1731793465.708877) can_bridge 198#DA749CFDCCA8
(1731793465.709093) can_bridge 0D1#06E3CB6B09AF
(1731793465.710468) can_bridge 1B8#0001020304
(1731793465.710693) can_bridge 199#57D537C73BF9
(1731793465.712041) can_bridge 210#00
(1731793465.712247) can_bridge 1B9#0001020304
(1731793465.713676) can_bridge 218#00
(1731793465.713926) can_bridge 211#00
(1731793465.715285) can_bridge 220#00
(1731793465.715485) can_bridge 219#00
(1731793465.716883) can_bridge 0D8#2301020304
(1731793465.717070) can_bridge 221#00
(1731793465.718524) can_bridge 0D0#E4FC561C695E
(1731793465.718708) can_bridge 0D9#2301020304
(1731793465.720170) can_bridge 198#CFAF1ACCE683
(1731793465.720376) can_bridge 0D1#32F2908A5B01
(1731793465.721808) can_bridge 1B8#0001020304
(1731793465.722067) can_bridge 199#94D8880368F5
(1731793465.723429) can_bridge 210#00
(1731793465.723633) can_bridge 1B9#0001020304
(1731793465.725015) can_bridge 218#00
(1731793465.725206) can_bridge 211#00
(1731793465.726627) can_bridge 220#00
(1731793465.726820) can_bridge 219#00
(1731793465.728212) can_bridge 0D8#2301020304
(1731793465.728392) can_bridge 221#00
(1731793465.729893) can_bridge 0D0#C2D022FB9FF9
(1731793465.730087) can_bridge 0D9#2301020304
(1731793465.731516) can_bridge 198#86FDB49C3422
(1731793465.731729) can_bridge 0D1#5C709B1F1039
(1731793465.733123) can_bridge 1B8#0001020304
(1731793465.733348) can_bridge 199#4027A26A6A68
(1731793465.734699) can_bridge 210#00
(1731793465.734882) can_bridge 1B9#0001020304
(1731793465.736272) can_bridge 218#00
(1731793465.736495) can_bridge 211#00
(1731793465.737894) can_bridge 220#00
(1731793465.738088) can_bridge 219#00
(1731793465.739479) can_bridge 0D8#2301020304
(1731793465.739713) can_bridge 221#00
(1731793465.741215) can_bridge 0D0#70241783A29D
(1731793465.741439) can_bridge 0D9#2301020304
(1731793465.742880) can_bridge 198#56AEDCC752FB
(1731793465.743092) can_bridge 0D1#F5AAB9F204CC
(1731793465.744493) can_bridge 1B8#0001020304
(1731793465.744684) can_bridge 199#83D26710636A
(1731793465.746086) can_bridge 210#00
(1731793465.746269) can_bridge 1B9#0001020304
(1731793465.747654) can_bridge 218#00
(1731793465.747837) can_bridge 211#00
(1731793465.749237) can_bridge 220#00
(1731793465.749423) can_bridge 219#00
(1731793465.750803) can_bridge 0D8#2301020304
(1731793465.750984) can_bridge 221#00
(1731793465.752399) can_bridge 0D0#328676FA581C
(1731793465.752623) can_bridge 0D9#2301020304
(1731793465.754071) can_bridge 198#E9BFC9617006
(1731793465.754262) can_bridge 0D1#4C3E5BA2D936
(1731793465.755781) can_bridge 1B8#0001020304
(1731793465.755954) can_bridge 199#BFEB9C634651
(1731793465.757430) can_bridge 210#00
(1731793465.757678) can_bridge 1B9#0001020304
(1731793465.759035) can_bridge 218#00
(1731793465.759230) can_bridge 211#00
(1731793465.760616) can_bridge 220#00
(1731793465.760800) can_bridge 219#00
(1731793465.762211) can_bridge 0D8#2301020304
(1731793465.762393) can_bridge 221#00
(1731793465.763835) can_bridge 0D0#BD264278E880
(1731793465.764021) can_bridge 0D9#2301020304
(1731793465.765452) can_bridge 198#C8136BD6BF61
(1731793465.765717) can_bridge 0D1#E930271FB488
(1731793465.767057) can_bridge 1B8#0001020304
(1731793465.767290) can_bridge 199#CC4F51E8F88C
(1731793465.768649) can_bridge 210#00
(1731793465.768834) can_bridge 1B9#0001020304
(1731793465.770220) can_bridge 218#00
(1731793465.770405) can_bridge 211#00
(1731793465.771789) can_bridge 220#00
(1731793465.771988) can_bridge 219#00
(1731793465.773380) can_bridge 0D8#2301020304
(1731793465.773612) can_bridge 221#00
(1731793465.775002) can_bridge 0D0#C3D9B75FCDAE
(1731793465.775213) can_bridge 0D9#2301020304
(1731793465.776619) can_bridge 198#70EF41B1EEB9
(1731793465.776846) can_bridge 0D1#E5F0BA771DE8
(1731793465.778206) can_bridge 1B8#0001020304
(1731793465.778424) can_bridge 199#511F527CE5D3
(1731793465.779775) can_bridge 210#00
(1731793465.779963) can_bridge 1B9#0001020304
(1731793465.781340) can_bridge 218#00
(1731793465.781532) can_bridge 211#00
(1731793465.782912) can_bridge 220#00
(1731793465.783102) can_bridge 219#00
(1731793465.784534) can_bridge 0D8#2301020304
(1731793465.784686) can_bridge 221#00
(1731793465.786193) can_bridge 0D0#B521FDA74D47
(1731793465.786370) can_bridge 0D9#2301020304
(1731793465.787811) can_bridge 198#A25FC613180F
(1731793465.788041) can_bridge 0D1#79A5E4291BD0
(1731793465.789408) can_bridge 1B8#0001020304
(1731793465.789678) can_bridge 199#1A9DEE76C1B9
(1731793465.791042) can_bridge 210#00
(1731793465.791258) can_bridge 1B9#0001020304
(1731793465.792618) can_bridge 218#00
(1731793465.792825) can_bridge 211#00
(1731793465.794229) can_bridge 220#00
(1731793465.794423) can_bridge 219#00
(1731793465.795822) can_bridge 0D8#2301020304
(1731793465.796009) can_bridge 221#00
(1731793465.797445) can_bridge 0D0#3A16D990869D
(1731793465.797672) can_bridge 0D9#2301020304
(1731793465.799056) can_bridge 198#0BF54FD7DF3E
(1731793465.799280) can_bridge 0D1#BB0FDC4E87A0
(1731793465.800642) can_bridge 1B8#0001020304
(1731793465.800891) can_bridge 199#8C5BDC613B19
(1731793465.802278) can_bridge 210#00
(1731793465.802472) can_bridge 1B9#0001020304
(1731793465.803861) can_bridge 218#00
(1731793465.804050) can_bridge 211#00
(1731793465.805444) can_bridge 220#00
(1731793465.805694) can_bridge 219#00
(1731793465.807072) can_bridge 0D8#2301020304
(1731793465.807237) can_bridge 221#00
(1731793465.808700) can_bridge 0D0#268BA13FED01
(1731793465.808902) can_bridge 0D9#2301020304
(1731793465.810342) can_bridge 198#132ABEC0388C
(1731793465.810571) can_bridge 0D1#F4E93F83DDAB
(1731793465.811927) can_bridge 1B8#0001020304
(1731793465.812145) can_bridge 199#CF235BBFE505
(1731793465.813523) can_bridge 210#00
(1731793465.813796) can_bridge 1B9#0001020304
(1731793465.815181) can_bridge 218#00
(1731793465.815397) can_bridge 211#00
(1731793465.816810) can_bridge 220#00
(1731793465.817027) can_bridge 219#00
(1731793465.818437) can_bridge 0D8#2301020304
(1731793465.818624) can_bridge 221#00
(1731793465.820066) can_bridge 0D0#D3D779964229
(1731793465.820254) can_bridge 0D9#2301020304
(1731793465.821729) can_bridge 198#60E41281E94F
(1731793465.821984) can_bridge 0D1#10E2DEA8C02F
(1731793465.823344) can_bridge 1B8#0001020304
(1731793465.823581) can_bridge 199#D9DAC78A4B02
(1731793465.824940) can_bridge 210#00
(1731793465.825131) can_bridge 1B9#0001020304
(1731793465.826548) can_bridge 218#00
(1731793465.826735) can_bridge 211#00
(1731793465.828128) can_bridge 220#00
(1731793465.828320) can_bridge 219#00
(1731793465.829740) can_bridge 0D8#2301020304
(1731793465.829958) can_bridge 221#00
(1731793465.831344) can_bridge 0D0#13E301BCC33E
(1731793465.831513) can_bridge 0D9#2301020304
(1731793465.832941) can_bridge 198#FD7FFCE2B37A
(1731793465.833136) can_bridge 0D1#621CC3AE0ED0
(1731793465.834496) can_bridge 1B8#0001020304
(1731793465.834698) can_bridge 199#13B05C048641
(1731793465.836045) can_bridge 210#00
(1731793465.836213) can_bridge 1B9#0001020304
(1731793465.837691) can_bridge 218#00
(1731793465.837882) can_bridge 211#00
(1731793465.839437) can_bridge 220#00
(1731793465.839665) can_bridge 219#00
(1731793465.841095) can_bridge 0D8#2301020304
(1731793465.841274) can_bridge 221#00
(1731793465.842847) can_bridge 0D0#B72BCADA81CC
(1731793465.843011) can_bridge 0D9#2301020304
(1731793465.844491) can_bridge 198#E115FE653A17
(1731793465.844647) can_bridge 0D1#62E7FA81DE86
(1731793465.846096) can_bridge 1B8#0001020304
(1731793465.846304) can_bridge 199#E17E334330DD
