(1731791603.568654) can_bridge 0D9#2301020304
(1731791603.569133) can_bridge 0D8#2301020304
(1731791603.595518) can_bridge 0D1#D7B8104B0EE4
(1731791603.595631) can_bridge 0D0#CA4CEE42AE6E
(1731791603.621855) can_bridge 198#C7EE4E07E79C
(1731791603.622442) can_bridge 199#98EA5F93A796
(1731791603.648295) can_bridge 1B8#0001020304
(1731791603.648551) can_bridge 1B9#0001020304
(1731791603.674645) can_bridge 211#00
(1731791603.674784) can_bridge 210#00
(1731791603.700822) can_bridge 219#00
(1731791603.700905) can_bridge 218#00
(1731791603.727261) can_bridge 221#00
(1731791603.728364) can_bridge 220#00
(1731791603.754852) can_bridge 0D9#2301020304
(1731791603.755445) can_bridge 0D8#2301020304
(1731791603.781374) can_bridge 0D1#4BAAC44E75FC
(1731791603.782165) can_bridge 0D0#12E63AECD739
(1731791603.808171) can_bridge 199#2F4D5586284A
(1731791603.808748) can_bridge 198#0148CDF1AFFD
(1731791603.834723) can_bridge 1B9#0001020304
(1731791603.834788) can_bridge 1B8#0001020304
(1731791603.860979) can_bridge 210#00
(1731791603.861264) can_bridge 211#00
(1731791603.887680) can_bridge 218#00
(1731791603.889079) can_bridge 219#00
(1731791603.914688) can_bridge 220#00
(1731791603.916028) can_bridge 221#00
(1731791603.940870) can_bridge 0D8#2301020304
(1731791603.942010) can_bridge 0D9#2301020304
(1731791603.967132) can_bridge 0D0#82EAB351DC6E
(1731791603.967944) can_bridge 0D1#F3B5D68E061C
(1731791603.993627) can_bridge 198#5BFC841812DE
(1731791603.994275) can_bridge 199#34A25642A892
(1731791604.020056) can_bridge 1B8#0001020304
(1731791604.020714) can_bridge 1B9#0001020304
(1731791604.047053) can_bridge 210#00
(1731791604.048069) can_bridge 211#00
(1731791604.073201) can_bridge 218#00
(1731791604.074174) can_bridge 219#00
(1731791604.099328) can_bridge 220#00
(1731791604.100010) can_bridge 221#00
(1731791604.125838) can_bridge 0D8#2301020304
(1731791604.126288) can_bridge 0D9#2301020304
(1731791604.151916) can_bridge 0D0#EEA5B5D6A6D7
(1731791604.152548) can_bridge 0D1#E6C2E1317C53
(1731791604.178565) can_bridge 198#DD3657B1A21F
(1731791604.179273) can_bridge 199#5832F6BAD221
(1731791604.207213) can_bridge 1B8#0001020304
(1731791604.207554) can_bridge 1B9#0001020304
(1731791604.234655) can_bridge 211#00
(1731791604.235767) can_bridge 210#00
(1731791604.260898) can_bridge 219#00
(1731791604.261885) can_bridge 218#00
(1731791604.287067) can_bridge 221#00
(1731791604.287740) can_bridge 220#00
(1731791604.313894) can_bridge 0D9#2301020304
(1731791604.313891) can_bridge 0D8#2301020304
(1731791604.340029) can_bridge 0D1#E25FA89D3BFB
(1731791604.340524) can_bridge 0D0#28FB4F534273
(1731791604.366604) can_bridge 199#2C8254D6FCCB
(1731791604.366692) can_bridge 198#C9189CE7B0A2
(1731791604.393173) can_bridge 1B9#0001020304
(1731791604.393433) can_bridge 1B8#0001020304
(1731791604.419295) can_bridge 211#00
(1731791604.419511) can_bridge 210#00
(1731791604.445498) can_bridge 219#00
(1731791604.445584) can_bridge 218#00
(1731791604.471651) can_bridge 221#00
(1731791604.471797) can_bridge 220#00
(1731791604.497831) can_bridge 0D9#2301020304
(1731791604.498009) can_bridge 0D8#2301020304
(1731791604.524526) can_bridge 0D0#37E3706A12F8
(1731791604.524620) can_bridge 0D1#2FA9BC860939
(1731791604.551122) can_bridge 199#25001F8EB8CD
(1731791604.552258) can_bridge 198#08567EB16891
(1731791604.577245) can_bridge 1B9#0001020304
(1731791604.578229) can_bridge 1B8#0001020304
(1731791604.603275) can_bridge 211#00
(1731791604.604027) can_bridge 210#00
(1731791604.629463) can_bridge 219#00
(1731791604.630019) can_bridge 218#00
(1731791604.655647) can_bridge 221#00
(1731791604.655937) can_bridge 220#00
(1731791604.681938) can_bridge 0D9#2301020304
(1731791604.682167) can_bridge 0D8#2301020304
(1731791604.708845) can_bridge 0D1#C83C637D4031
(1731791604.709186) can_bridge 0D0#0D7F3D470019
(1731791604.735504) can_bridge 199#D30A87753BCF
(1731791604.735582) can_bridge 198#FA95924C42C9
(1731791604.761574) can_bridge 1B9#0001020304
(1731791604.761827) can_bridge 1B8#0001020304
(1731791604.787719) can_bridge 211#00
(1731791604.787937) can_bridge 210#00
(1731791604.814029) can_bridge 219#00
(1731791604.814072) can_bridge 218#00
(1731791604.840486) can_bridge 221#00
(1731791604.840805) can_bridge 220#00
(1731791604.868782) can_bridge 0D8#2301020304
(1731791604.869087) can_bridge 0D9#2301020304
(1731791604.895530) can_bridge 0D1#37BF15925FAC
(1731791604.895586) can_bridge 0D0#44726032968B
(1731791604.922010) can_bridge 199#C14226EF6211
(1731791604.922094) can_bridge 198#3BF61A502C91
(1731791604.948080) can_bridge 1B9#0001020304
(1731791604.948271) can_bridge 1B8#0001020304
(1731791604.974351) can_bridge 210#00
(1731791604.974455) can_bridge 211#00
(1731791605.000910) can_bridge 218#00
(1731791605.000943) can_bridge 219#00
(1731791605.027391) can_bridge 220#00
(1731791605.027757) can_bridge 221#00
(1731791605.053422) can_bridge 0D8#2301020304
(1731791605.053536) can_bridge 0D9#2301020304
(1731791605.079606) can_bridge 0D0#23A346B59990
(1731791605.079865) can_bridge 0D1#0C25AB230625
(1731791605.105773) can_bridge 198#11576151E871
(1731791605.106184) can_bridge 199#64A06138D946
(1731791605.131857) can_bridge 1B8#0001020304
(1731791605.132165) can_bridge 1B9#0001020304
(1731791605.158145) can_bridge 210#00
(1731791605.158301) can_bridge 211#00
(1731791605.184602) can_bridge 219#00
(1731791605.184871) can_bridge 218#00
(1731791605.210682) can_bridge 221#00
(1731791605.210911) can_bridge 220#00
(1731791605.237338) can_bridge 0D8#2301020304
(1731791605.237578) can_bridge 0D9#2301020304
(1731791605.264130) can_bridge 0D0#FD9E513666B7
(1731791605.264873) can_bridge 0D1#7C31CEF2CCCD
(1731791605.290918) can_bridge 198#F8DE6A42A51B
(1731791605.291794) can_bridge 199#F3AE9408B98A
(1731791605.319677) can_bridge 1B8#0001020304
(1731791605.319753) can_bridge 1B9#0001020304
(1731791605.347204) can_bridge 210#00
(1731791605.347623) can_bridge 211#00
(1731791605.374086) can_bridge 218#00
(1731791605.374276) can_bridge 219#00
(1731791605.400629) can_bridge 220#00
(1731791605.400630) can_bridge 221#00
(1731791605.426746) can_bridge 0D8#2301020304
(1731791605.427002) can_bridge 0D9#2301020304
(1731791605.453398) can_bridge 0D0#A835A735AFF9
(1731791605.453690) can_bridge 0D1#2B9A8F47F962
(1731791605.480066) can_bridge 198#6715ADB67B2D
(1731791605.481100) can_bridge 199#398DFE6D954B
(1731791605.508230) can_bridge 1B8#0001020304
(1731791605.508989) can_bridge 1B9#0001020304
(1731791605.536294) can_bridge 210#00
(1731791605.536958) can_bridge 211#00
(1731791605.563300) can_bridge 218#00
(1731791605.563679) can_bridge 219#00
(1731791605.590014) can_bridge 221#00
(1731791605.590008) can_bridge 220#00
(1731791605.616154) can_bridge 0D8#2301020304
(1731791605.616596) can_bridge 0D9#2301020304
(1731791605.642477) can_bridge 0D0#8AA18ED39E2E
(1731791605.642645) can_bridge 0D1#FE3F21CF9475
(1731791605.669486) can_bridge 198#6E5FB045C4C0
(1731791605.669788) can_bridge 199#1E7CA764E62F
(1731791605.696170) can_bridge 1B8#0001020304
(1731791605.697828) can_bridge 1B9#0001020304
(1731791605.722745) can_bridge 210#00
(1731791605.724056) can_bridge 211#00
(1731791605.749082) can_bridge 218#00
(1731791605.750192) can_bridge 219#00
(1731791605.775346) can_bridge 220#00
(1731791605.775908) can_bridge 221#00
(1731791605.801927) can_bridge 0D9#2301020304
(1731791605.802082) can_bridge 0D8#2301020304
(1731791605.828350) can_bridge 0D0#91D8006C1619
(1731791605.828410) can_bridge 0D1#15B7E6235FBB
(1731791605.854727) can_bridge 198#81CB7401A22A
(1731791605.854749) can_bridge 199#FE425A0CAE92
(1731791605.880785) can_bridge 1B9#0001020304
(1731791605.881046) can_bridge 1B8#0001020304
(1731791605.906883) can_bridge 211#00
(1731791605.907115) can_bridge 210#00
(1731791605.932934) can_bridge 219#00
(1731791605.933083) can_bridge 218#00
(1731791605.959042) can_bridge 221#00
(1731791605.959104) can_bridge 220#00
(1731791605.985335) can_bridge 0D8#2301020304
(1731791605.985880) can_bridge 0D9#2301020304
(1731791606.012608) can_bridge 0D0#BCEE717EA189
(1731791606.014043) can_bridge 0D1#B3BC826299DF
(1731791606.039135) can_bridge 198#27F2FD120E68
(1731791606.040535) can_bridge 199#CB2D16E666E8
(1731791606.065575) can_bridge 1B8#0001020304
(1731791606.066674) can_bridge 1B9#0001020304
(1731791606.091672) can_bridge 210#00
(1731791606.092755) can_bridge 211#00
(1731791606.117788) can_bridge 218#00
(1731791606.118744) can_bridge 219#00
(1731791606.144221) can_bridge 220#00
(1731791606.144881) can_bridge 221#00
(1731791606.171317) can_bridge 0D8#2301020304
(1731791606.171353) can_bridge 0D9#2301020304
(1731791606.197955) can_bridge 0D1#A9224CA588DF
(1731791606.198291) can_bridge 0D0#0B1D2AE81642
(1731791606.224166) can_bridge 199#C76764CF1E45
(1731791606.225169) can_bridge 198#924444263A29
(1731791606.250331) can_bridge 1B9#0001020304
(1731791606.251051) can_bridge 1B8#0001020304
(1731791606.276652) can_bridge 211#00
(1731791606.277067) can_bridge 210#00
(1731791606.303110) can_bridge 219#00
(1731791606.304637) can_bridge 218#00
(1731791606.330484) can_bridge 221#00
(1731791606.330886) can_bridge 220#00
(1731791606.357283) can_bridge 0D8#2301020304
(1731791606.357594) can_bridge 0D9#2301020304
(1731791606.384153) can_bridge 0D1#096DDB9F47D9
(1731791606.384310) can_bridge 0D0#C25A09A50CF3
(1731791606.410482) can_bridge 198#9898811AFD2C
(1731791606.410954) can_bridge 199#1594B0D4F442
(1731791606.436625) can_bridge 1B8#0001020304
(1731791606.437076) can_bridge 1B9#0001020304
(1731791606.463150) can_bridge 211#00
(1731791606.463445) can_bridge 210#00
(1731791606.489460) can_bridge 219#00
(1731791606.489545) can_bridge 218#00
(1731791606.516067) can_bridge 220#00
(1731791606.516428) can_bridge 221#00
(1731791606.542498) can_bridge 0D8#2301020304
(1731791606.542656) can_bridge 0D9#2301020304
(1731791606.568691) can_bridge 0D1#8B5DC95542B2
(1731791606.568740) can_bridge 0D0#DDBD652461CD
(1731791606.594779) can_bridge 199#545C0FBD1B2A
(1731791606.594879) can_bridge 198#522A43E9F5E4
(1731791606.620931) can_bridge 1B8#0001020304
(1731791606.620932) can_bridge 1B9#0001020304
(1731791606.647274) can_bridge 210#00
(1731791606.648019) can_bridge 211#00
(1731791606.674069) can_bridge 218#00
(1731791606.674503) can_bridge 219#00
(1731791606.700957) can_bridge 221#00
(1731791606.701040) can_bridge 220#00
(1731791606.727120) can_bridge 0D8#2301020304
(1731791606.727441) can_bridge 0D9#2301020304
(1731791606.753528) can_bridge 0D0#F1728ABC00E7
(1731791606.753672) can_bridge 0D1#E587AA5525F9
(1731791606.779713) can_bridge 199#A0FC4374FEFE
(1731791606.779848) can_bridge 198#ECDF37CAD849
(1731791606.806262) can_bridge 1B9#0001020304
(1731791606.806997) can_bridge 1B8#0001020304
(1731791606.833118) can_bridge 211#00
(1731791606.833382) can_bridge 210#00
(1731791606.859254) can_bridge 219#00
(1731791606.859593) can_bridge 218#00
(1731791606.885391) can_bridge 221#00
(1731791606.885492) can_bridge 220#00
(1731791606.911446) can_bridge 0D8#2301020304
(1731791606.911549) can_bridge 0D9#2301020304
(1731791606.937762) can_bridge 0D1#111E6EF50F23
(1731791606.937837) can_bridge 0D0#6A08B56A5C5D
(1731791606.964071) can_bridge 199#9C446B0019E8
(1731791606.964568) can_bridge 198#071CD5C16056
(1731791606.990734) can_bridge 1B9#0001020304
(1731791606.991127) can_bridge 1B8#0001020304
(1731791607.016971) can_bridge 211#00
(1731791607.017345) can_bridge 210#00
(1731791607.043227) can_bridge 219#00
(1731791607.043628) can_bridge 218#00
(1731791607.069329) can_bridge 221#00
(1731791607.069602) can_bridge 220#00
(1731791607.096773) can_bridge 0D9#2301020304
(1731791607.098517) can_bridge 0D8#2301020304
(1731791607.125719) can_bridge 0D1#3480A858590B
(1731791607.126204) can_bridge 0D0#429A91504909
(1731791607.153234) can_bridge 199#E9CE11002BF9
(1731791607.154001) can_bridge 198#170C5570D7D6
(1731791607.179925) can_bridge 1B9#0001020304
(1731791607.180162) can_bridge 1B8#0001020304
(1731791607.206163) can_bridge 211#00
(1731791607.206259) can_bridge 210#00
(1731791607.232344) can_bridge 218#00
(1731791607.232588) can_bridge 219#00
(1731791607.258802) can_bridge 221#00
(1731791607.259430) can_bridge 220#00
(1731791607.285259) can_bridge 0D9#2301020304
(1731791607.286188) can_bridge 0D8#2301020304
(1731791607.313130) can_bridge 0D1#03C946DCDA56
(1731791607.313481) can_bridge 0D0#CE0E01C5B3A5
(1731791607.339530) can_bridge 199#EACE7944C46C
(1731791607.339854) can_bridge 198#67579ACCB20E
(1731791607.365910) can_bridge 1B9#0001020304
(1731791607.366243) can_bridge 1B8#0001020304
(1731791607.392011) can_bridge 211#00
(1731791607.392266) can_bridge 210#00
(1731791607.418183) can_bridge 219#00
(1731791607.418529) can_bridge 218#00
(1731791607.444796) can_bridge 221#00
(1731791607.445063) can_bridge 220#00
(1731791607.472096) can_bridge 0D8#2301020304
(1731791607.472413) can_bridge 0D9#2301020304
(1731791607.498971) can_bridge 0D0#5CA69B620311
(1731791607.499273) can_bridge 0D1#A1F3AD8B9D4B
(1731791607.525669) can_bridge 199#6E854A0C3132
(1731791607.525961) can_bridge 198#89E91FEDAAD1
(1731791607.551770) can_bridge 1B9#0001020304
(1731791607.551885) can_bridge 1B8#0001020304
(1731791607.577969) can_bridge 210#00
(1731791607.578109) can_bridge 211#00
(1731791607.604376) can_bridge 219#00
(1731791607.604800) can_bridge 218#00
(1731791607.631451) can_bridge 221#00
(1731791607.632518) can_bridge 220#00
(1731791607.658794) can_bridge 0D9#2301020304
(1731791607.659963) can_bridge 0D8#2301020304
(1731791607.685065) can_bridge 0D1#2584E534EE12
(1731791607.686065) can_bridge 0D0#23DC18BC7A94
(1731791607.711208) can_bridge 199#DC191A46318F
(1731791607.711863) can_bridge 198#632A57586076
(1731791607.737471) can_bridge 1B9#0001020304
(1731791607.737749) can_bridge 1B8#0001020304
(1731791607.763864) can_bridge 211#00
(1731791607.764152) can_bridge 210#00
(1731791607.790482) can_bridge 219#00
(1731791607.791026) can_bridge 218#00
(1731791607.817241) can_bridge 221#00
(1731791607.818263) can_bridge 220#00
(1731791607.843378) can_bridge 0D9#2301020304
(1731791607.844120) can_bridge 0D8#2301020304
(1731791607.869596) can_bridge 0D1#1A7B96D84F9F
(1731791607.870266) can_bridge 0D0#B9FC56E0E1DC
(1731791607.895868) can_bridge 199#B5E076D38E7A
(1731791607.896280) can_bridge 198#B50620D4B12C
(1731791607.922385) can_bridge 1B9#0001020304
(1731791607.922614) can_bridge 1B8#0001020304
(1731791607.949153) can_bridge 211#00
(1731791607.949612) can_bridge 210#00
(1731791607.976031) can_bridge 219#00
(1731791607.976688) can_bridge 218#00
(1731791608.002620) can_bridge 221#00
(1731791608.003192) can_bridge 220#00
(1731791608.029230) can_bridge 0D9#2301020304
(1731791608.029475) can_bridge 0D8#2301020304
(1731791608.055938) can_bridge 0D1#B285406C91AF
(1731791608.056110) can_bridge 0D0#1CC99EA3690A
(1731791608.083427) can_bridge 199#3A57FB905D12
(1731791608.084864) can_bridge 198#B1D222D8875F
(1731791608.109987) can_bridge 1B9#0001020304
(1731791608.112334) can_bridge 1B8#0001020304
(1731791608.136528) can_bridge 211#00
(1731791608.139255) can_bridge 210#00
(1731791608.162769) can_bridge 219#00
(1731791608.165482) can_bridge 218#00
(1731791608.189076) can_bridge 221#00
(1731791608.191414) can_bridge 220#00
(1731791608.215454) can_bridge 0D9#2301020304
(1731791608.217465) can_bridge 0D8#2301020304
(1731791608.242063) can_bridge 0D1#0FC09ABCBBDB
(1731791608.244799) can_bridge 0D0#EE6D50814D7B
(1731791608.269726) can_bridge 199#050C8B4D8F2D
(1731791608.271358) can_bridge 198#4FE163F40439
(1731791608.296553) can_bridge 1B9#0001020304
(1731791608.297892) can_bridge 1B8#0001020304
(1731791608.322896) can_bridge 211#00
(1731791608.324208) can_bridge 210#00
(1731791608.349420) can_bridge 219#00
(1731791608.350725) can_bridge 218#00
(1731791608.375936) can_bridge 221#00
(1731791608.376961) can_bridge 220#00
(1731791608.402961) can_bridge 0D9#2301020304
(1731791608.403539) can_bridge 0D8#2301020304
(1731791608.429909) can_bridge 0D1#5DE5DAE45957
(1731791608.430572) can_bridge 0D0#BEF62C429A64
(1731791608.456872) can_bridge 199#B793C3B8F12B
(1731791608.457410) can_bridge 198#E25354FE9577
(1731791608.483308) can_bridge 1B9#0001020304
(1731791608.484625) can_bridge 1B8#0001020304
(1731791608.509739) can_bridge 211#00
(1731791608.510875) can_bridge 210#00
(1731791608.536196) can_bridge 219#00
(1731791608.537173) can_bridge 218#00
(1731791608.563290) can_bridge 221#00
(1731791608.563486) can_bridge 220#00
(1731791608.592047) can_bridge 0D8#2301020304
(1731791608.592636) can_bridge 0D9#2301020304
(1731791608.620117) can_bridge 0D0#F87A47EF825E
(1731791608.620817) can_bridge 0D1#49DA692D5819
(1731791608.646543) can_bridge 198#1BCF7B9E27A8
(1731791608.646784) can_bridge 199#49FE13F13549
(1731791608.672895) can_bridge 1B9#0001020304
(1731791608.673177) can_bridge 1B8#0001020304
(1731791608.699533) can_bridge 210#00
(1731791608.700684) can_bridge 211#00
(1731791608.725924) can_bridge 218#00
(1731791608.726696) can_bridge 219#00
(1731791608.753342) can_bridge 220#00
(1731791608.753365) can_bridge 221#00
(1731791608.780033) can_bridge 0D9#2301020304
(1731791608.781316) can_bridge 0D8#2301020304
(1731791608.806440) can_bridge 0D1#27F7D16FC1C6
(1731791608.807240) can_bridge 0D0#871597FE3036
(1731791608.832693) can_bridge 199#E7EC756D231B
(1731791608.833266) can_bridge 198#1ABF13C896A7
(1731791608.859203) can_bridge 1B9#0001020304
(1731791608.859219) can_bridge 1B8#0001020304
(1731791608.885217) can_bridge 211#00
(1731791608.885457) can_bridge 210#00
(1731791608.911463) can_bridge 219#00
(1731791608.911870) can_bridge 218#00
(1731791608.937866) can_bridge 221#00
(1731791608.938195) can_bridge 220#00
(1731791608.964133) can_bridge 0D9#2301020304
(1731791608.964322) can_bridge 0D8#2301020304
(1731791608.990371) can_bridge 0D0#0435D4A047E0
(1731791608.990498) can_bridge 0D1#07CD16E57B91
(1731791609.016603) can_bridge 199#D7B2583E3483
(1731791609.016799) can_bridge 198#89AED0239442
(1731791609.042768) can_bridge 1B9#0001020304
(1731791609.042821) can_bridge 1B8#0001020304
(1731791609.068957) can_bridge 210#00
(1731791609.069137) can_bridge 211#00
(1731791609.096145) can_bridge 219#00
(1731791609.096298) can_bridge 218#00
(1731791609.122351) can_bridge 220#00
(1731791609.122876) can_bridge 221#00
(1731791609.148457) can_bridge 0D8#2301020304
(1731791609.148990) can_bridge 0D9#2301020304
(1731791609.174577) can_bridge 0D0#42BBF89DB9F4
(1731791609.174863) can_bridge 0D1#111AE6214DD9
(1731791609.200747) can_bridge 198#E13AB051C3A1
(1731791609.201293) can_bridge 199#6FB69C80EA18
(1731791609.227105) can_bridge 1B8#0001020304
(1731791609.227327) can_bridge 1B9#0001020304
(1731791609.253674) can_bridge 210#00
(1731791609.254287) can_bridge 211#00
(1731791609.280569) can_bridge 218#00
(1731791609.280737) can_bridge 219#00
(1731791609.306780) can_bridge 220#00
(1731791609.306873) can_bridge 221#00
(1731791609.332936) can_bridge 0D9#2301020304
(1731791609.333052) can_bridge 0D8#2301020304
(1731791609.359115) can_bridge 0D1#9A39E50D81E5
(1731791609.359677) can_bridge 0D0#E55D5F56D6B9
(1731791609.385527) can_bridge 199#75A36BBC7488
(1731791609.386036) can_bridge 198#A61F7F176238
(1731791609.411953) can_bridge 1B9#0001020304
(1731791609.412693) can_bridge 1B8#0001020304
(1731791609.438279) can_bridge 211#00
(1731791609.438702) can_bridge 210#00
(1731791609.464638) can_bridge 218#00
(1731791609.464701) can_bridge 219#00
(1731791609.490996) can_bridge 221#00
(1731791609.491065) can_bridge 220#00
(1731791609.517528) can_bridge 0D9#2301020304
(1731791609.517620) can_bridge 0D8#2301020304
(1731791609.543724) can_bridge 0D1#336D2B75C0C0
(1731791609.544004) can_bridge 0D0#0D1E9A05AC67
(1731791609.570394) can_bridge 199#58D0032564F3
(1731791609.570605) can_bridge 198#6E85595E325C
(1731791609.596798) can_bridge 1B9#0001020304
(1731791609.597266) can_bridge 1B8#0001020304
(1731791609.623019) can_bridge 211#00
(1731791609.623259) can_bridge 210#00
(1731791609.649098) can_bridge 219#00
(1731791609.649302) can_bridge 218#00
(1731791609.675301) can_bridge 220#00
(1731791609.675430) can_bridge 221#00
(1731791609.701452) can_bridge 0D8#2301020304
(1731791609.701603) can_bridge 0D9#2301020304
(1731791609.727914) can_bridge 0D0#4ED6824676E3
(1731791609.728993) can_bridge 0D1#0EE3A2D3E6D5
(1731791609.754117) can_bridge 198#E255AD067092
(1731791609.755070) can_bridge 199#A93FF437F9ED
(1731791609.780241) can_bridge 1B8#0001020304
(1731791609.780839) can_bridge 1B9#0001020304
(1731791609.806464) can_bridge 210#00
(1731791609.806745) can_bridge 211#00
(1731791609.832785) can_bridge 218#00
(1731791609.833111) can_bridge 219#00
(1731791609.859825) can_bridge 220#00
(1731791609.860199) can_bridge 221#00
(1731791609.887537) can_bridge 0D8#2301020304
(1731791609.888156) can_bridge 0D9#2301020304
(1731791609.914209) can_bridge 0D0#0B1C7612244A
(1731791609.914588) can_bridge 0D1#9F2E37F03809
(1731791609.940316) can_bridge 198#6B4E05B15A21
(1731791609.940750) can_bridge 199#80ED7B9DB6C1
(1731791609.966532) can_bridge 1B8#0001020304
(1731791609.966898) can_bridge 1B9#0001020304
(1731791609.992733) can_bridge 210#00
(1731791609.992946) can_bridge 211#00
(1731791610.019526) can_bridge 218#00
(1731791610.020596) can_bridge 219#00
(1731791610.046517) can_bridge 220#00
(1731791610.046955) can_bridge 221#00
(1731791610.073625) can_bridge 0D9#2301020304
(1731791610.073751) can_bridge 0D8#2301020304
(1731791610.099960) can_bridge 0D0#3C93C850F3B1
(1731791610.100802) can_bridge 0D1#85BC87A4642F
(1731791610.126621) can_bridge 198#D3E183E785B9
(1731791610.127160) can_bridge 199#38CF4FB53A5D
(1731791610.153117) can_bridge 1B8#0001020304
(1731791610.153497) can_bridge 1B9#0001020304
(1731791610.179821) can_bridge 210#00
(1731791610.179882) can_bridge 211#00
(1731791610.206526) can_bridge 218#00
(1731791610.206839) can_bridge 219#00
(1731791610.232722) can_bridge 220#00
(1731791610.232915) can_bridge 221#00
(1731791610.258914) can_bridge 0D8#2301020304
(1731791610.259060) can_bridge 0D9#2301020304
(1731791610.285243) can_bridge 0D0#160F8493FBE6
(1731791610.285484) can_bridge 0D1#3A98048772B4
(1731791610.311502) can_bridge 199#78BAD2ADA23D
(1731791610.311608) can_bridge 198#2D80988C15BF
(1731791610.338029) can_bridge 1B8#0001020304
(1731791610.338401) can_bridge 1B9#0001020304
(1731791610.365088) can_bridge 210#00
(1731791610.365446) can_bridge 211#00
(1731791610.391617) can_bridge 218#00
(1731791610.391968) can_bridge 219#00
(1731791610.417693) can_bridge 220#00
(1731791610.417907) can_bridge 221#00
(1731791610.443926) can_bridge 0D9#2301020304
(1731791610.444023) can_bridge 0D8#2301020304
(1731791610.470260) can_bridge 0D0#54E847D1B1D6
(1731791610.470472) can_bridge 0D1#3952902706D9
(1731791610.496926) can_bridge 198#F6B2ED1C3E83
(1731791610.496927) can_bridge 199#F9EE4D753907
(1731791610.523162) can_bridge 1B8#0001020304
(1731791610.523278) can_bridge 1B9#0001020304
(1731791610.549783) can_bridge 211#00
(1731791610.550050) can_bridge 210#00
(1731791610.576140) can_bridge 218#00
(1731791610.577179) can_bridge 219#00
(1731791610.602335) can_bridge 220#00
(1731791610.603007) can_bridge 221#00
(1731791610.628745) can_bridge 0D8#2301020304
(1731791610.629729) can_bridge 0D9#2301020304
(1731791610.655096) can_bridge 0D0#76AC53C8366A
(1731791610.655737) can_bridge 0D1#911C6076083B
(1731791610.681562) can_bridge 198#7222838EF269
(1731791610.681750) can_bridge 199#A687ABCB0C88
(1731791610.708361) can_bridge 1B9#0001020304
(1731791610.708765) can_bridge 1B8#0001020304
(1731791610.735199) can_bridge 211#00
(1731791610.735369) can_bridge 210#00
(1731791610.761436) can_bridge 219#00
(1731791610.761823) can_bridge 218#00
(1731791610.787645) can_bridge 221#00
(1731791610.787976) can_bridge 220#00
(1731791610.813715) can_bridge 0D9#2301020304
(1731791610.813937) can_bridge 0D8#2301020304
(1731791610.840056) can_bridge 0D1#3666ADFB99E8
(1731791610.840203) can_bridge 0D0#ABFFCA2C180A
(1731791610.866723) can_bridge 198#66AE9DDAB3F0
(1731791610.867123) can_bridge 199#68B77BA4E4D0
(1731791610.892824) can_bridge 1B8#0001020304
(1731791610.893087) can_bridge 1B9#0001020304
(1731791610.919434) can_bridge 211#00
(1731791610.919677) can_bridge 210#00
(1731791610.945903) can_bridge 218#00
(1731791610.945979) can_bridge 219#00
(1731791610.972056) can_bridge 221#00
(1731791610.972121) can_bridge 220#00
(1731791610.998308) can_bridge 0D9#2301020304
(1731791610.998430) can_bridge 0D8#2301020304
(1731791611.026230) can_bridge 0D1#DA09C8058482
(1731791611.026521) can_bridge 0D0#EC5E8246C310
(1731791611.052968) can_bridge 198#1B3B4AA4A63D
(1731791611.053251) can_bridge 199#A0BF310151B1
(1731791611.079200) can_bridge 1B8#0001020304
(1731791611.079432) can_bridge 1B9#0001020304
(1731791611.105562) can_bridge 211#00
(1731791611.105697) can_bridge 210#00
(1731791611.131798) can_bridge 218#00
(1731791611.132116) can_bridge 219#00
(1731791611.158012) can_bridge 220#00
(1731791611.158107) can_bridge 221#00
(1731791611.184171) can_bridge 0D9#2301020304
(1731791611.184542) can_bridge 0D8#2301020304
(1731791611.210785) can_bridge 0D1#B5BE0B0B046B
(1731791611.211090) can_bridge 0D0#89934B316F80
(1731791611.236897) can_bridge 199#A2ACC196D276
(1731791611.237765) can_bridge 198#95FA6D7CA10D
(1731791611.262930) can_bridge 1B9#0001020304
(1731791611.263482) can_bridge 1B8#0001020304
(1731791611.289212) can_bridge 211#00
(1731791611.289308) can_bridge 210#00
(1731791611.315678) can_bridge 218#00
(1731791611.315939) can_bridge 219#00
(1731791611.343165) can_bridge 221#00
(1731791611.343158) can_bridge 220#00
(1731791611.369456) can_bridge 0D9#2301020304
(1731791611.369976) can_bridge 0D8#2301020304
(1731791611.395580) can_bridge 0D1#AFDD00E14EB1
(1731791611.396610) can_bridge 0D0#67A71FD2BAB0
(1731791611.421647) can_bridge 199#CA2CFFEC262A
(1731791611.422538) can_bridge 198#DDCFD5D5AD15
(1731791611.447765) can_bridge 1B9#0001020304
(1731791611.448383) can_bridge 1B8#0001020304
(1731791611.474833) can_bridge 210#00
(1731791611.475062) can_bridge 211#00
(1731791611.502102) can_bridge 218#00
(1731791611.502234) can_bridge 219#00
(1731791611.528866) can_bridge 220#00
(1731791611.529107) can_bridge 221#00
(1731791611.555268) can_bridge 0D8#2301020304
(1731791611.555331) can_bridge 0D9#2301020304
(1731791611.581712) can_bridge 0D0#4B9FC7A3C403
(1731791611.581778) can_bridge 0D1#38CE36E29638
(1731791611.607817) can_bridge 198#991EB6803286
(1731791611.608325) can_bridge 199#761682CA3699
(1731791611.633946) can_bridge 1B8#0001020304
(1731791611.634484) can_bridge 1B9#0001020304
(1731791611.660176) can_bridge 210#00
(1731791611.660369) can_bridge 211#00
(1731791611.686787) can_bridge 218#00
(1731791611.687063) can_bridge 219#00
(1731791611.713473) can_bridge 221#00
(1731791611.713718) can_bridge 220#00
(1731791611.739864) can_bridge 0D8#2301020304
(1731791611.740413) can_bridge 0D9#2301020304
(1731791611.766290) can_bridge 0D0#76FA583485BA
(1731791611.768313) can_bridge 0D1#B96EB14E49BD
(1731791611.794493) can_bridge 198#44176CF5C431
(1731791611.795191) can_bridge 199#D9A37DE02808
(1731791611.821266) can_bridge 1B8#0001020304
(1731791611.823015) can_bridge 1B9#0001020304
(1731791611.848733) can_bridge 210#00
(1731791611.849919) can_bridge 211#00
(1731791611.875030) can_bridge 218#00
(1731791611.875839) can_bridge 219#00
(1731791611.901024) can_bridge 220#00
(1731791611.901902) can_bridge 221#00
(1731791611.927066) can_bridge 0D8#2301020304
(1731791611.927973) can_bridge 0D9#2301020304
(1731791611.953155) can_bridge 0D0#64B63D5DE2AA
(1731791611.954045) can_bridge 0D1#7A087296B0B9
(1731791611.979238) can_bridge 198#DF1CC0C9773F
(1731791611.980168) can_bridge 199#693DFAF8CA72
(1731791612.005621) can_bridge 1B8#0001020304
(1731791612.006646) can_bridge 1B9#0001020304
(1731791612.031767) can_bridge 210#00
(1731791612.032663) can_bridge 211#00
(1731791612.057814) can_bridge 218#00
(1731791612.058685) can_bridge 219#00
(1731791612.083849) can_bridge 220#00
(1731791612.084781) can_bridge 221#00
(1731791612.109946) can_bridge 0D8#2301020304
(1731791612.110559) can_bridge 0D9#2301020304
(1731791612.136358) can_bridge 0D0#DFE89E6CD83D
(1731791612.136834) can_bridge 0D1#03D925F69921
(1731791612.162776) can_bridge 198#6D943871AAE7
(1731791612.163725) can_bridge 199#DDC78D4E1F29
(1731791612.188867) can_bridge 1B8#0001020304
(1731791612.189558) can_bridge 1B9#0001020304
(1731791612.214982) can_bridge 210#00
(1731791612.215867) can_bridge 211#00
(1731791612.241033) can_bridge 218#00
(1731791612.242031) can_bridge 219#00
(1731791612.267282) can_bridge 220#00
(1731791612.267887) can_bridge 221#00
(1731791612.293607) can_bridge 0D8#2301020304
(1731791612.293987) can_bridge 0D9#2301020304
(1731791612.320137) can_bridge 0D0#897A9A4C15D5
(1731791612.320412) can_bridge 0D1#AEFE36B924D0
(1731791612.346312) can_bridge 198#61DAB3FDB27C
(1731791612.346613) can_bridge 199#E9BE881C8C6D
(1731791612.372467) can_bridge 1B8#0001020304
(1731791612.372570) can_bridge 1B9#0001020304
(1731791612.398579) can_bridge 211#00
(1731791612.398675) can_bridge 210#00
(1731791612.425218) can_bridge 218#00
(1731791612.425218) can_bridge 219#00
(1731791612.452169) can_bridge 221#00
(1731791612.452434) can_bridge 220#00
(1731791612.478807) can_bridge 0D9#2301020304
(1731791612.479057) can_bridge 0D8#2301020304
(1731791612.505267) can_bridge 0D0#C9FDC0BA344E
(1731791612.505312) can_bridge 0D1#2AE16B0CBE78
(1731791612.531698) can_bridge 198#60EDB1D2FBCD
(1731791612.531774) can_bridge 199#D74374E10081
(1731791612.557830) can_bridge 1B8#0001020304
(1731791612.558184) can_bridge 1B9#0001020304
(1731791612.584432) can_bridge 210#00
(1731791612.584743) can_bridge 211#00
(1731791612.611132) can_bridge 218#00
(1731791612.611301) can_bridge 219#00
(1731791612.637870) can_bridge 221#00
(1731791612.638163) can_bridge 220#00
(1731791612.664321) can_bridge 0D9#2301020304
(1731791612.664323) can_bridge 0D8#2301020304
(1731791612.690740) can_bridge 0D1#10656F9B80E3
(1731791612.690812) can_bridge 0D0#4BD0330EEB90
(1731791612.716839) can_bridge 199#3DF56DD00D78
(1731791612.717299) can_bridge 198#D4F822A53222
(1731791612.743209) can_bridge 1B9#0001020304
(1731791612.743209) can_bridge 1B8#0001020304
(1731791612.769611) can_bridge 210#00
(1731791612.769598) can_bridge 211#00
(1731791612.796020) can_bridge 219#00
(1731791612.796645) can_bridge 218#00
(1731791612.822288) can_bridge 221#00
(1731791612.822642) can_bridge 220#00
(1731791612.848339) can_bridge 0D9#2301020304
(1731791612.848682) can_bridge 0D8#2301020304
(1731791612.874456) can_bridge 0D1#D0A0B9EB55ED
(1731791612.874763) can_bridge 0D0#44187F4D8C73
(1731791612.900955) can_bridge 199#542128529737
(1731791612.901415) can_bridge 198#C87D1D20C657
(1731791612.928009) can_bridge 1B9#0001020304
(1731791612.928813) can_bridge 1B8#0001020304
(1731791612.954571) can_bridge 211#00
(1731791612.955543) can_bridge 210#00
(1731791612.980673) can_bridge 219#00
(1731791612.981567) can_bridge 218#00
(1731791613.006706) can_bridge 221#00
(1731791613.007414) can_bridge 220#00
(1731791613.033030) can_bridge 0D9#2301020304
(1731791613.033480) can_bridge 0D8#2301020304
(1731791613.059462) can_bridge 0D1#0B51F6ABF86C
(1731791613.060392) can_bridge 0D0#3AF7DC6795F0
(1731791613.086448) can_bridge 199#C5711B78A7BB
(1731791613.086806) can_bridge 198#987E3DEEDB85
(1731791613.113126) can_bridge 1B8#0001020304
(1731791613.113574) can_bridge 1B9#0001020304
(1731791613.139351) can_bridge 210#00
(1731791613.139988) can_bridge 211#00
(1731791613.165644) can_bridge 218#00
(1731791613.165889) can_bridge 219#00
(1731791613.191799) can_bridge 221#00
(1731791613.191802) can_bridge 220#00
(1731791613.218321) can_bridge 0D9#2301020304
(1731791613.218563) can_bridge 0D8#2301020304
(1731791613.245153) can_bridge 0D0#3DEDD964F24E
(1731791613.245527) can_bridge 0D1#FE7C0B1EDA58
(1731791613.271684) can_bridge 198#1CFB239C2BAC
(1731791613.271961) can_bridge 199#95BB5A38DA26
(1731791613.298271) can_bridge 1B9#0001020304
(1731791613.298321) can_bridge 1B8#0001020304
(1731791613.324864) can_bridge 210#00
(1731791613.325067) can_bridge 211#00
(1731791613.351306) can_bridge 218#00
(1731791613.351374) can_bridge 219#00
(1731791613.379177) can_bridge 220#00
(1731791613.380118) can_bridge 221#00
(1731791613.406909) can_bridge 0D9#2301020304
(1731791613.407295) can_bridge 0D8#2301020304
(1731791613.434110) can_bridge 0D0#72E0C0EBDF92
(1731791613.434481) can_bridge 0D1#FD71BB105A15
(1731791613.460673) can_bridge 198#730C7CADADD1
(1731791613.460744) can_bridge 199#E962F99254FF
(1731791613.486719) can_bridge 1B8#0001020304
(1731791613.487014) can_bridge 1B9#0001020304
(1731791613.513092) can_bridge 211#00
(1731791613.513136) can_bridge 210#00
(1731791613.539564) can_bridge 218#00
(1731791613.539692) can_bridge 219#00
(1731791613.566239) can_bridge 221#00
(1731791613.566598) can_bridge 220#00
(1731791613.592704) can_bridge 0D9#2301020304
(1731791613.595015) can_bridge 0D8#2301020304
(1731791613.618920) can_bridge 0D1#165FBD1B4321
(1731791613.621393) can_bridge 0D0#5BB6B419DBF4
(1731791613.645336) can_bridge 199#E0013BE4C64F
(1731791613.647737) can_bridge 198#6BF7C12C3EA8
(1731791613.671773) can_bridge 1B9#0001020304
(1731791613.673882) can_bridge 1B8#0001020304
(1731791613.698769) can_bridge 211#00
(1731791613.700426) can_bridge 210#00
(1731791613.726510) can_bridge 219#00
(1731791613.727113) can_bridge 218#00
(1731791613.753786) can_bridge 221#00
(1731791613.754159) can_bridge 220#00
(1731791613.780565) can_bridge 0D8#2301020304
(1731791613.780664) can_bridge 0D9#2301020304
(1731791613.807426) can_bridge 0D1#EBD9D069E6F1
(1731791613.807410) can_bridge 0D0#5B23D12BCCE0
(1731791613.833760) can_bridge 199#C23266785C48
(1731791613.834175) can_bridge 198#820846DC139D
(1731791613.860147) can_bridge 1B9#0001020304
(1731791613.860562) can_bridge 1B8#0001020304
(1731791613.886661) can_bridge 211#00
(1731791613.887302) can_bridge 210#00
(1731791613.913597) can_bridge 219#00
(1731791613.914035) can_bridge 218#00
(1731791613.939922) can_bridge 221#00
(1731791613.940398) can_bridge 220#00
(1731791613.966509) can_bridge 0D9#2301020304
(1731791613.966872) can_bridge 0D8#2301020304
(1731791613.993263) can_bridge 0D1#E22BC92BFA0A
(1731791613.994015) can_bridge 0D0#D0302F2036A7
(1731791614.020246) can_bridge 199#FDAE609A5B5A
(1731791614.020705) can_bridge 198#9ADC22937A65
(1731791614.047978) can_bridge 1B8#0001020304
(1731791614.048421) can_bridge 1B9#0001020304
(1731791614.075318) can_bridge 210#00
(1731791614.075461) can_bridge 211#00
(1731791614.101625) can_bridge 218#00
(1731791614.101921) can_bridge 219#00
(1731791614.127954) can_bridge 220#00
(1731791614.128100) can_bridge 221#00
(1731791614.154514) can_bridge 0D9#2301020304
(1731791614.155036) can_bridge 0D8#2301020304
(1731791614.181064) can_bridge 0D1#D84E0070E801
(1731791614.181451) can_bridge 0D0#BF95DD3C3118
(1731791614.207802) can_bridge 198#D2482ECB6054
(1731791614.208600) can_bridge 199#140A35FFBB4B
(1731791614.234798) can_bridge 1B8#0001020304
(1731791614.235545) can_bridge 1B9#0001020304
(1731791614.261553) can_bridge 210#00
(1731791614.261837) can_bridge 211#00
(1731791616.166318) can_bridge 221#00
(1731791616.167192) can_bridge 220#00
(1731791616.192983) can_bridge 0D9#2301020304
(1731791616.193951) can_bridge 0D8#2301020304
(1731791616.219106) can_bridge 0D1#EE1699B29388
(1731791616.219763) can_bridge 0D0#5532C4172338
(1731791616.245620) can_bridge 199#2B0B19BFE21C
(1731791616.246152) can_bridge 198#838D083E487B
(1731791616.272633) can_bridge 1B8#0001020304
(1731791616.272633) can_bridge 1B9#0001020304
(1731791616.299109) can_bridge 210#00
(1731791616.299411) can_bridge 211#00
(1731791616.325494) can_bridge 219#00
(1731791616.325547) can_bridge 218#00
(1731791616.351680) can_bridge 221#00
(1731791616.351868) can_bridge 220#00
(1731791616.378148) can_bridge 0D9#2301020304
(1731791616.378519) can_bridge 0D8#2301020304
(1731791616.404675) can_bridge 0D0#92247EFC80C9
(1731791616.404733) can_bridge 0D1#CF3D7136C959
(1731791616.431154) can_bridge 199#0EF8ECF3AF29
(1731791616.432000) can_bridge 198#1BDCD69F298C
(1731791616.458257) can_bridge 1B9#0001020304
(1731791616.459003) can_bridge 1B8#0001020304
(1731791616.485049) can_bridge 210#00
(1731791616.485302) can_bridge 211#00
(1731791616.511673) can_bridge 218#00
(1731791616.511738) can_bridge 219#00
(1731791616.538083) can_bridge 221#00
(1731791616.538217) can_bridge 220#00
(1731791616.564189) can_bridge 0D9#2301020304
(1731791616.564680) can_bridge 0D8#2301020304
(1731791616.591982) can_bridge 0D0#C70FCE83ABAA
(1731791616.592181) can_bridge 0D1#9465FC75F86D
(1731791616.618673) can_bridge 198#9B6F2DA5692E
(1731791616.619683) can_bridge 199#B66F62A4F4BD
(1731791616.644813) can_bridge 1B8#0001020304
(1731791616.645759) can_bridge 1B9#0001020304
(1731791616.670922) can_bridge 210#00
(1731791616.671619) can_bridge 211#00
(1731791616.697809) can_bridge 219#00
(1731791616.697919) can_bridge 218#00
(1731791616.724192) can_bridge 220#00
(1731791616.724355) can_bridge 221#00
(1731791616.750469) can_bridge 0D8#2301020304
(1731791616.750812) can_bridge 0D9#2301020304
(1731791616.777110) can_bridge 0D0#F74876937C53
(1731791616.777678) can_bridge 0D1#66357B62D7DB
(1731791616.803459) can_bridge 198#B61AA961219B
(1731791616.803944) can_bridge 199#BCB41724C9D6
(1731791616.829707) can_bridge 1B8#0001020304
(1731791616.830158) can_bridge 1B9#0001020304
(1731791616.855793) can_bridge 210#00
(1731791616.855921) can_bridge 211#00
(1731791616.882177) can_bridge 218#00
(1731791616.883110) can_bridge 219#00
(1731791616.908809) can_bridge 220#00
(1731791616.909124) can_bridge 221#00
(1731791616.935143) can_bridge 0D8#2301020304
(1731791616.935456) can_bridge 0D9#2301020304
(1731791616.961379) can_bridge 0D0#D8D7D82B791A
(1731791616.961545) can_bridge 0D1#28EA4C9D3996
(1731791616.987585) can_bridge 199#F19B952CC00E
(1731791616.987866) can_bridge 198#AC0875B1B5C8
(1731791617.013806) can_bridge 1B9#0001020304
(1731791617.014346) can_bridge 1B8#0001020304
(1731791617.039968) can_bridge 211#00
(1731791617.040247) can_bridge 210#00
(1731791617.066311) can_bridge 219#00
(1731791617.066741) can_bridge 218#00
(1731791617.093546) can_bridge 220#00
(1731791617.093925) can_bridge 221#00
(1731791617.119883) can_bridge 0D8#2301020304
(1731791617.120605) can_bridge 0D9#2301020304
(1731791617.146273) can_bridge 0D0#FFB2B2687EE9
(1731791617.146751) can_bridge 0D1#A4D4E0DA4B64
(1731791617.172536) can_bridge 198#1F813119FB77
(1731791617.172795) can_bridge 199#B593BF8D8E98
(1731791617.198664) can_bridge 1B8#0001020304
(1731791617.198702) can_bridge 1B9#0001020304
(1731791617.224868) can_bridge 211#00
(1731791617.224868) can_bridge 210#00
(1731791617.251267) can_bridge 219#00
(1731791617.251624) can_bridge 218#00
(1731791617.277372) can_bridge 221#00
(1731791617.277593) can_bridge 220#00
(1731791617.303621) can_bridge 0D8#2301020304
(1731791617.303720) can_bridge 0D9#2301020304
(1731791617.329792) can_bridge 0D1#C4DCFBAAF55E
(1731791617.330008) can_bridge 0D0#1362F4E5CC71
(1731791617.356044) can_bridge 198#476EBA47E087
(1731791617.356577) can_bridge 199#F9CE3323AA9C
(1731791617.382339) can_bridge 1B8#0001020304
(1731791617.383085) can_bridge 1B9#0001020304
(1731791617.408980) can_bridge 210#00
(1731791617.409241) can_bridge 211#00
(1731791617.435567) can_bridge 218#00
(1731791617.435752) can_bridge 219#00
(1731791617.461668) can_bridge 220#00
(1731791617.462089) can_bridge 221#00
(1731791617.488078) can_bridge 0D9#2301020304
(1731791617.488075) can_bridge 0D8#2301020304
(1731791617.514270) can_bridge 0D0#7F9D7E1F3587
(1731791617.514647) can_bridge 0D1#DDA26D14054A
(1731791617.540950) can_bridge 198#0CFE988314CC
(1731791617.541000) can_bridge 199#3F593AC6CC0A
(1731791617.567521) can_bridge 1B9#0001020304
(1731791617.567806) can_bridge 1B8#0001020304
(1731791617.594132) can_bridge 211#00
(1731791617.594197) can_bridge 210#00
(1731791617.620257) can_bridge 218#00
(1731791617.620373) can_bridge 219#00
(1731791617.646698) can_bridge 220#00
(1731791617.646757) can_bridge 221#00
(1731791617.673114) can_bridge 0D9#2301020304
(1731791617.673178) can_bridge 0D8#2301020304
(1731791617.700346) can_bridge 0D0#6340C9976956
(1731791617.701212) can_bridge 0D1#C603B242EFBD
(1731791617.728762) can_bridge 198#4700FF6B6002
(1731791617.728875) can_bridge 199#8BC6DA0F5D12
(1731791617.755391) can_bridge 1B9#0001020304
(1731791617.755668) can_bridge 1B8#0001020304
(1731791617.781478) can_bridge 211#00
(1731791617.781851) can_bridge 210#00
(1731791617.808072) can_bridge 219#00
(1731791617.808132) can_bridge 218#00
(1731791617.834490) can_bridge 221#00
(1731791617.834557) can_bridge 220#00
(1731791617.860616) can_bridge 0D8#2301020304
(1731791617.860858) can_bridge 0D9#2301020304
(1731791617.887029) can_bridge 0D1#4B1ADFF8BFCD
(1731791617.887516) can_bridge 0D0#A47E69DE7D83
(1731791617.914040) can_bridge 199#BD537C869091
(1731791617.914562) can_bridge 198#2828F0FB3031
(1731791617.940341) can_bridge 1B9#0001020304
(1731791617.940923) can_bridge 1B8#0001020304
(1731791617.966969) can_bridge 211#00
(1731791617.967025) can_bridge 210#00
(1731791617.993152) can_bridge 218#00
(1731791617.993584) can_bridge 219#00
(1731791618.019534) can_bridge 220#00
(1731791618.020168) can_bridge 221#00
(1731791618.045714) can_bridge 0D8#2301020304
(1731791618.046760) can_bridge 0D9#2301020304
(1731791618.071926) can_bridge 0D0#9EB125EAA026
(1731791618.073398) can_bridge 0D1#4BDB834B4FD8
(1731791618.098239) can_bridge 198#3E1CD125969D
(1731791618.100712) can_bridge 199#B25044CCBB12
(1731791618.124519) can_bridge 1B8#0001020304
(1731791618.126861) can_bridge 1B9#0001020304
(1731791618.150548) can_bridge 210#00
(1731791618.152854) can_bridge 211#00
(1731791618.176664) can_bridge 218#00
(1731791618.179484) can_bridge 219#00
(1731791618.203110) can_bridge 220#00
(1731791618.206497) can_bridge 221#00
(1731791618.229257) can_bridge 0D8#2301020304
(1731791618.232809) can_bridge 0D9#2301020304
(1731791618.255363) can_bridge 0D0#EC0B854856E5
(1731791618.258757) can_bridge 0D1#B0A340566840
(1731791618.281474) can_bridge 198#FE3D46491D3A
(1731791618.284666) can_bridge 199#97FB559B122E
(1731791618.307497) can_bridge 1B8#0001020304
(1731791618.310553) can_bridge 1B9#0001020304
(1731791618.333746) can_bridge 210#00
(1731791618.336894) can_bridge 211#00
(1731791618.360116) can_bridge 218#00
(1731791618.364109) can_bridge 219#00
(1731791618.386394) can_bridge 220#00
(1731791618.390391) can_bridge 221#00
(1731791618.412477) can_bridge 0D8#2301020304
(1731791618.416160) can_bridge 0D9#2301020304
(1731791618.438590) can_bridge 0D0#354F18ADFA15
(1731791618.442062) can_bridge 0D1#2B329458CCCD
(1731791618.464874) can_bridge 198#F9A64C5BBDA4
(1731791618.467959) can_bridge 199#9C78A809D740
(1731791618.491242) can_bridge 1B8#0001020304
(1731791618.494096) can_bridge 1B9#0001020304
(1731791618.517702) can_bridge 210#00
(1731791618.520826) can_bridge 211#00
(1731791618.543907) can_bridge 218#00
(1731791618.546998) can_bridge 219#00
(1731791618.570320) can_bridge 220#00
(1731791618.573950) can_bridge 221#00
(1731791618.596392) can_bridge 0D8#2301020304
(1731791618.599799) can_bridge 0D9#2301020304
(1731791618.622846) can_bridge 0D0#E8C7BEC53B99
(1731791618.625584) can_bridge 0D1#B7620C7D1D4F
(1731791618.649628) can_bridge 198#F4862B6D45BB
(1731791618.651476) can_bridge 199#40F78186B1E5
(1731791618.676080) can_bridge 1B8#0001020304
(1731791618.677582) can_bridge 1B9#0001020304
(1731791618.702222) can_bridge 210#00
(1731791618.703605) can_bridge 211#00
(1731791618.728275) can_bridge 218#00
(1731791618.729388) can_bridge 219#00
(1731791618.754407) can_bridge 220#00
(1731791618.755309) can_bridge 221#00
(1731791618.780775) can_bridge 0D8#2301020304
(1731791618.781366) can_bridge 0D9#2301020304
(1731791618.807529) can_bridge 0D0#003C7279D153
(1731791618.808119) can_bridge 0D1#8BE106732593
(1731791618.834121) can_bridge 198#5DC0A4906D81
(1731791618.834475) can_bridge 199#35391BAFDC4F
(1731791618.860189) can_bridge 1B8#0001020304
(1731791618.860532) can_bridge 1B9#0001020304
(1731791618.886291) can_bridge 210#00
(1731791618.886561) can_bridge 211#00
(1731791618.912308) can_bridge 218#00
(1731791618.913235) can_bridge 219#00
(1731791618.938737) can_bridge 220#00
(1731791618.939990) can_bridge 221#00
(1731791618.965694) can_bridge 0D8#2301020304
(1731791618.966296) can_bridge 0D9#2301020304
(1731791618.992740) can_bridge 0D0#BA8050A382B5
(1731791618.993074) can_bridge 0D1#AC1905BF54E6
(1731791619.018961) can_bridge 198#8DDCE2510853
(1731791619.019487) can_bridge 199#4BD107A0AF92
(1731791619.045261) can_bridge 1B8#0001020304
(1731791619.045572) can_bridge 1B9#0001020304
(1731791619.071704) can_bridge 210#00
(1731791619.072237) can_bridge 211#00
(1731791619.098024) can_bridge 218#00
(1731791619.098385) can_bridge 219#00
(1731791619.124359) can_bridge 221#00
(1731791619.124361) can_bridge 220#00
(1731791619.150937) can_bridge 0D8#2301020304
(1731791619.151209) can_bridge 0D9#2301020304
(1731791619.177478) can_bridge 0D0#AE5FD3CBC7DD
(1731791619.177780) can_bridge 0D1#82FCB468FA82
(1731791619.204018) can_bridge 198#582D85096C78
(1731791619.204222) can_bridge 199#ACA4204C9A09
(1731791619.230455) can_bridge 1B9#0001020304
(1731791619.230605) can_bridge 1B8#0001020304
(1731791619.256693) can_bridge 210#00
(1731791619.257031) can_bridge 211#00
(1731791619.283606) can_bridge 218#00
(1731791619.283608) can_bridge 219#00
(1731791619.310266) can_bridge 220#00
(1731791619.310741) can_bridge 221#00
(1731791619.336774) can_bridge 0D8#2301020304
(1731791619.337093) can_bridge 0D9#2301020304
(1731791619.363105) can_bridge 0D1#1C4CE022356B
(1731791619.363284) can_bridge 0D0#4D6DCE865521
(1731791619.389410) can_bridge 199#15D6A12E03B7
(1731791619.389722) can_bridge 198#5FBF4598BAA8
(1731791619.415704) can_bridge 1B8#0001020304
(1731791619.416163) can_bridge 1B9#0001020304
(1731791619.442308) can_bridge 210#00
(1731791619.442547) can_bridge 211#00
(1731791619.469015) can_bridge 218#00
(1731791619.471198) can_bridge 219#00
(1731791619.496304) can_bridge 220#00
(1731791619.497328) can_bridge 221#00
(1731791619.522508) can_bridge 0D8#2301020304
(1731791619.523388) can_bridge 0D9#2301020304
(1731791619.548903) can_bridge 0D0#41EE20F56835
(1731791619.549888) can_bridge 0D1#E483138E4C0B
(1731791619.575410) can_bridge 198#F6B40A802507
(1731791619.576321) can_bridge 199#09B50AB716F1
(1731791619.601856) can_bridge 1B8#0001020304
(1731791619.603179) can_bridge 1B9#0001020304
(1731791619.628184) can_bridge 210#00
(1731791619.630083) can_bridge 211#00
(1731791619.654886) can_bridge 218#00
(1731791619.658060) can_bridge 219#00
(1731791619.681105) can_bridge 220#00
(1731791619.684588) can_bridge 221#00
(1731791619.707176) can_bridge 0D8#2301020304
(1731791619.710397) can_bridge 0D9#2301020304
(1731791619.733429) can_bridge 0D0#37BDC324BEFD
(1731791619.736311) can_bridge 0D1#9BDC11A1F424
(1731791619.759724) can_bridge 198#250AB6411351
(1731791619.762526) can_bridge 199#1D6F3003B472
(1731791619.786347) can_bridge 1B8#0001020304
(1731791619.788670) can_bridge 1B9#0001020304
(1731791619.812581) can_bridge 210#00
(1731791619.814540) can_bridge 211#00
(1731791619.838659) can_bridge 218#00
(1731791619.840537) can_bridge 219#00
(1731791619.864707) can_bridge 220#00
(1731791619.866435) can_bridge 221#00
(1731791619.890866) can_bridge 0D8#2301020304
(1731791619.892548) can_bridge 0D9#2301020304
(1731791619.917332) can_bridge 0D0#6E1EF2CB10D5
(1731791619.918886) can_bridge 0D1#1C3B245708AE
(1731791619.943629) can_bridge 198#7FF4B8C482B9
(1731791619.944972) can_bridge 199#C3A9C9408A39
(1731791619.970143) can_bridge 1B8#0001020304
(1731791619.971315) can_bridge 1B9#0001020304
(1731791619.996585) can_bridge 210#00
(1731791619.997454) can_bridge 211#00
(1731791620.023099) can_bridge 218#00
(1731791620.024035) can_bridge 219#00
(1731791620.050157) can_bridge 220#00
(1731791620.051814) can_bridge 221#00
(1731791620.076818) can_bridge 0D8#2301020304
(1731791620.078751) can_bridge 0D9#2301020304
(1731791620.103521) can_bridge 0D0#DA7F80876961
(1731791620.105180) can_bridge 0D1#D543D7555DF1
(1731791620.130037) can_bridge 198#EC747DC0771E
(1731791620.131828) can_bridge 199#3D3FE8114666
(1731791620.156312) can_bridge 1B8#0001020304
(1731791620.158082) can_bridge 1B9#0001020304
(1731791620.182821) can_bridge 210#00
(1731791620.184251) can_bridge 211#00
(1731791620.209423) can_bridge 218#00
(1731791620.210821) can_bridge 219#00
(1731791620.235727) can_bridge 220#00
(1731791620.236979) can_bridge 221#00
(1731791620.262055) can_bridge 0D8#2301020304
(1731791620.263261) can_bridge 0D9#2301020304
(1731791620.288486) can_bridge 0D0#F3D6167A0B17
(1731791620.289800) can_bridge 0D1#FA12EB1CB573
(1731791620.314982) can_bridge 198#D6719BEC33B2
(1731791620.315890) can_bridge 199#AAF571FCEB4C
(1731791620.341534) can_bridge 1B8#0001020304
(1731791620.342441) can_bridge 1B9#0001020304
(1731791620.368692) can_bridge 210#00
(1731791620.369424) can_bridge 211#00
(1731791620.395276) can_bridge 218#00
(1731791620.395958) can_bridge 219#00
(1731791620.422173) can_bridge 220#00
(1731791620.422549) can_bridge 221#00
(1731791620.448607) can_bridge 0D8#2301020304
(1731791620.449045) can_bridge 0D9#2301020304
(1731791620.475993) can_bridge 0D0#81CED31DC732
(1731791620.476927) can_bridge 0D1#FB14669C262B
(1731791620.503603) can_bridge 199#308BDA11BBB4
(1731791620.504597) can_bridge 198#A6F5239AD9A8
(1731791620.530802) can_bridge 1B9#0001020304
(1731791620.532016) can_bridge 1B8#0001020304
(1731791620.557713) can_bridge 211#00
(1731791620.559143) can_bridge 210#00
(1731791620.583998) can_bridge 219#00
(1731791620.585268) can_bridge 218#00
(1731791620.610357) can_bridge 221#00
(1731791620.611562) can_bridge 220#00
(1731791620.637005) can_bridge 0D9#2301020304
(1731791620.638060) can_bridge 0D8#2301020304
(1731791620.664812) can_bridge 0D1#E5C879DAFF40
(1731791620.665495) can_bridge 0D0#421A63F66839
(1731791620.691566) can_bridge 199#C2AE59882900
(1731791620.692037) can_bridge 198#676AD507DE2B
(1731791620.717985) can_bridge 1B9#0001020304
(1731791620.718410) can_bridge 1B8#0001020304
(1731791620.744304) can_bridge 211#00
(1731791620.744747) can_bridge 210#00
(1731791620.770971) can_bridge 219#00
(1731791620.771910) can_bridge 218#00
(1731791620.797880) can_bridge 221#00
(1731791620.798313) can_bridge 220#00
(1731791620.824677) can_bridge 0D8#2301020304
(1731791620.824783) can_bridge 0D9#2301020304
(1731791620.851409) can_bridge 0D0#384F3B7C2688
(1731791620.851793) can_bridge 0D1#0B8F79CB3498
(1731791620.878036) can_bridge 198#82D62A16EF83
(1731791620.878452) can_bridge 199#8F8F345FED70
(1731791620.904282) can_bridge 1B8#0001020304
(1731791620.904570) can_bridge 1B9#0001020304
(1731791620.931052) can_bridge 211#00
(1731791620.931044) can_bridge 210#00
(1731791620.957442) can_bridge 219#00
(1731791620.957558) can_bridge 218#00
(1731791620.984566) can_bridge 220#00
(1731791620.984688) can_bridge 221#00
(1731791621.011144) can_bridge 0D9#2301020304
(1731791621.011719) can_bridge 0D8#2301020304
(1731791621.037987) can_bridge 0D1#2C76F80A7C15
(1731791621.038167) can_bridge 0D0#939964A03DC9
(1731791621.064531) can_bridge 199#DE3117A278F0
(1731791621.064971) can_bridge 198#2B08C91A0F08
(1731791621.091265) can_bridge 1B8#0001020304
(1731791621.091621) can_bridge 1B9#0001020304
(1731791621.117945) can_bridge 210#00
(1731791621.118955) can_bridge 211#00
(1731791621.144806) can_bridge 218#00
(1731791621.145585) can_bridge 219#00
(1731791621.171384) can_bridge 220#00
(1731791621.173489) can_bridge 221#00
(1731791621.197535) can_bridge 0D8#2301020304
(1731791621.199586) can_bridge 0D9#2301020304
(1731791621.223956) can_bridge 0D0#134BE8CA22CB
(1731791621.225828) can_bridge 0D1#9355A779815F
(1731791621.250355) can_bridge 198#9A0E7F033097
(1731791621.251927) can_bridge 199#36B54E6178C9
(1731791621.276414) can_bridge 1B8#0001020304
(1731791621.277839) can_bridge 1B9#0001020304
(1731791621.302700) can_bridge 210#00
(1731791621.303976) can_bridge 211#00
(1731791621.329207) can_bridge 218#00
(1731791621.330405) can_bridge 219#00
(1731791621.355472) can_bridge 220#00
(1731791621.356475) can_bridge 221#00
(1731791621.381604) can_bridge 0D8#2301020304
(1731791621.382273) can_bridge 0D9#2301020304
(1731791621.407882) can_bridge 0D0#AF61596F3F1E
(1731791621.408252) can_bridge 0D1#C6FC4808ECBC
(1731791621.434202) can_bridge 198#846A9DC70C48
(1731791621.434322) can_bridge 199#79C2EBDC6974
(1731791621.460576) can_bridge 1B8#0001020304
(1731791621.460577) can_bridge 1B9#0001020304
(1731791621.487063) can_bridge 211#00
(1731791621.487700) can_bridge 210#00
(1731791621.513492) can_bridge 219#00
(1731791621.514067) can_bridge 218#00
(1731791621.539707) can_bridge 221#00
(1731791621.540071) can_bridge 220#00
(1731791621.565890) can_bridge 0D9#2301020304
(1731791621.566143) can_bridge 0D8#2301020304
(1731791621.592208) can_bridge 0D1#6FE48C196C0C
(1731791621.593051) can_bridge 0D0#6689FB4A9E0F
(1731791621.618785) can_bridge 199#56BBB45F8F0F
(1731791621.619229) can_bridge 198#EDDD541734BF
(1731791621.645184) can_bridge 1B9#0001020304
(1731791621.645437) can_bridge 1B8#0001020304
(1731791621.671462) can_bridge 211#00
(1731791621.672136) can_bridge 210#00
(1731791621.697583) can_bridge 219#00
(1731791621.698463) can_bridge 218#00
(1731791621.723624) can_bridge 221#00
(1731791621.724564) can_bridge 220#00
(1731791621.749736) can_bridge 0D9#2301020304
(1731791621.750410) can_bridge 0D8#2301020304
(1731791621.776024) can_bridge 0D1#1F1D375DA9BD
(1731791621.776713) can_bridge 0D0#52401AA7BBCA
(1731791621.802588) can_bridge 199#B03C7FE3EACD
(1731791621.803046) can_bridge 198#D8EFD270AC36
(1731791621.829047) can_bridge 1B8#0001020304
(1731791621.829121) can_bridge 1B9#0001020304
(1731791621.855241) can_bridge 211#00
(1731791621.855346) can_bridge 210#00
(1731791621.881640) can_bridge 219#00
(1731791621.881697) can_bridge 218#00
(1731791621.907785) can_bridge 220#00
(1731791621.908076) can_bridge 221#00
(1731791621.934454) can_bridge 0D9#2301020304
(1731791621.934455) can_bridge 0D8#2301020304
(1731791621.961053) can_bridge 0D0#4F33B3196242
(1731791621.961570) can_bridge 0D1#7C7F23D402DF
(1731791621.987859) can_bridge 199#56E549A216EC
(1731791621.987847) can_bridge 198#860F58339DF8
(1731791622.013986) can_bridge 1B8#0001020304
(1731791622.014355) can_bridge 1B9#0001020304
(1731791622.040203) can_bridge 210#00
(1731791622.040401) can_bridge 211#00
(1731791622.066426) can_bridge 218#00
(1731791622.066498) can_bridge 219#00
(1731791622.092644) can_bridge 220#00
(1731791622.092780) can_bridge 221#00
(1731791622.119222) can_bridge 0D9#2301020304
(1731791622.119506) can_bridge 0D8#2301020304
(1731791622.145271) can_bridge 0D1#5C41BD69EBEE
(1731791622.145751) can_bridge 0D0#48A1FE4E48D9
(1731791622.171518) can_bridge 199#FA4397739093
(1731791622.171831) can_bridge 198#368DD4DC2759
(1731791622.197980) can_bridge 1B9#0001020304
(1731791622.198446) can_bridge 1B8#0001020304
(1731791622.224711) can_bridge 210#00
(1731791622.224712) can_bridge 211#00
(1731791622.251069) can_bridge 219#00
(1731791622.251123) can_bridge 218#00
(1731791622.277467) can_bridge 221#00
(1731791622.278609) can_bridge 220#00
(1731791622.304406) can_bridge 0D9#2301020304
(1731791622.304899) can_bridge 0D8#2301020304
(1731791622.330650) can_bridge 0D1#5E3295AD663C
(1731791622.331013) can_bridge 0D0#2AFC88AD0B49
(1731791622.356745) can_bridge 199#3F5A6733DC50
(1731791622.357090) can_bridge 198#06FB50160C23
(1731791622.382850) can_bridge 1B9#0001020304
(1731791622.382963) can_bridge 1B8#0001020304
(1731791622.409184) can_bridge 210#00
(1731791622.409182) can_bridge 211#00
(1731791622.435546) can_bridge 218#00
(1731791622.435981) can_bridge 219#00
(1731791622.461859) can_bridge 220#00
(1731791622.462112) can_bridge 221#00
(1731791622.488008) can_bridge 0D8#2301020304
(1731791622.488227) can_bridge 0D9#2301020304
(1731791622.514175) can_bridge 0D0#D1E8632EA043
(1731791622.514535) can_bridge 0D1#6DB34111127C
(1731791622.540270) can_bridge 198#3A43A5E336BE
(1731791622.540573) can_bridge 199#9DDA8E6BA577
(1731791622.566529) can_bridge 1B9#0001020304
(1731791622.566536) can_bridge 1B8#0001020304
(1731791622.593013) can_bridge 210#00
(1731791622.593420) can_bridge 211#00
(1731791622.619203) can_bridge 218#00
(1731791622.619582) can_bridge 219#00
(1731791622.645337) can_bridge 220#00
(1731791622.645726) can_bridge 221#00
(1731791622.671409) can_bridge 0D8#2301020304
(1731791622.671653) can_bridge 0D9#2301020304
(1731791622.698113) can_bridge 0D1#05AC26D2A63E
(1731791622.698628) can_bridge 0D0#C26F68CD4BB0
(1731791622.724830) can_bridge 198#A8600C26D45C
(1731791622.725083) can_bridge 199#710BE92A2CA5
(1731791622.751211) can_bridge 1B8#0001020304
(1731791622.751210) can_bridge 1B9#0001020304
(1731791622.777368) can_bridge 210#00
(1731791622.778020) can_bridge 211#00
(1731791622.803795) can_bridge 218#00
(1731791622.804038) can_bridge 219#00
(1731791622.830269) can_bridge 221#00
(1731791622.830328) can_bridge 220#00
(1731791622.856878) can_bridge 0D9#2301020304
(1731791622.857110) can_bridge 0D8#2301020304
(1731791622.883443) can_bridge 0D1#D76BD10B1D20
(1731791622.883722) can_bridge 0D0#F2B5FA3AFDC0
(1731791622.910170) can_bridge 199#65F18F373A1D
(1731791622.910529) can_bridge 198#06D9D621E06A
(1731791622.936393) can_bridge 1B9#0001020304
(1731791622.936614) can_bridge 1B8#0001020304
(1731791622.962757) can_bridge 211#00
(1731791622.962819) can_bridge 210#00
(1731791622.988976) can_bridge 218#00
(1731791622.989067) can_bridge 219#00
(1731791623.015070) can_bridge 221#00
(1731791623.015175) can_bridge 220#00
(1731791623.041343) can_bridge 0D9#2301020304
(1731791623.041479) can_bridge 0D8#2301020304
(1731791623.068274) can_bridge 0D0#81CAF2844934
(1731791623.068676) can_bridge 0D1#C91915D363B5
(1731791623.094467) can_bridge 198#A00E2E412D39
(1731791623.094719) can_bridge 199#65A512E26018
(1731791623.120604) can_bridge 1B8#0001020304
(1731791623.120700) can_bridge 1B9#0001020304
(1731791623.146696) can_bridge 211#00
(1731791623.146812) can_bridge 210#00
(1731791623.173207) can_bridge 218#00
(1731791623.173409) can_bridge 219#00
(1731791623.200514) can_bridge 220#00
(1731791623.200670) can_bridge 221#00
(1731791623.226994) can_bridge 0D8#2301020304
(1731791623.227268) can_bridge 0D9#2301020304
(1731791623.253405) can_bridge 0D1#D4BD4957E719
(1731791623.253458) can_bridge 0D0#10742861359D
(1731791623.279885) can_bridge 199#F1ECD6724A72
(1731791623.280055) can_bridge 198#533BC938F5BB
(1731791623.306058) can_bridge 1B9#0001020304
(1731791623.306373) can_bridge 1B8#0001020304
(1731791623.332460) can_bridge 210#00
(1731791623.332671) can_bridge 211#00
(1731791623.358842) can_bridge 218#00
(1731791623.358935) can_bridge 219#00
(1731791623.386080) can_bridge 220#00
(1731791623.386384) can_bridge 221#00
(1731791623.412680) can_bridge 0D8#2301020304
(1731791623.412933) can_bridge 0D9#2301020304
(1731791623.439004) can_bridge 0D1#ADB10862E0E1
(1731791623.439129) can_bridge 0D0#0A90FAB4D13C
(1731791623.465757) can_bridge 198#F9AC79B217CD
(1731791623.465758) can_bridge 199#DD1020A15383
(1731791623.492060) can_bridge 1B9#0001020304
(1731791623.492110) can_bridge 1B8#0001020304
(1731791623.518665) can_bridge 210#00
(1731791623.518781) can_bridge 211#00
(1731791623.545316) can_bridge 219#00
(1731791623.546354) can_bridge 218#00
(1731791623.571491) can_bridge 221#00
(1731791623.572410) can_bridge 220#00
(1731791623.597569) can_bridge 0D9#2301020304
(1731791623.598368) can_bridge 0D8#2301020304
(1731791623.623814) can_bridge 0D1#93E234C80127
(1731791623.624384) can_bridge 0D0#589FBC6776D1
(1731791623.650068) can_bridge 199#93233A68498B
(1731791623.650429) can_bridge 198#9AE0830BE1E7
(1731791623.676645) can_bridge 1B9#0001020304
(1731791623.676620) can_bridge 1B8#0001020304
(1731791623.702910) can_bridge 210#00
(1731791623.703228) can_bridge 211#00
(1731791623.729263) can_bridge 218#00
(1731791623.729502) can_bridge 219#00
(1731791623.755513) can_bridge 221#00
(1731791623.755728) can_bridge 220#00
(1731791623.782399) can_bridge 0D9#2301020304
(1731791623.782599) can_bridge 0D8#2301020304
(1731791623.808704) can_bridge 0D0#EACEC9E1257F
(1731791623.808948) can_bridge 0D1#21D229B70530
(1731791623.835247) can_bridge 199#141D7485D4A6
(1731791623.836040) can_bridge 198#A89F2BA5FF23
(1731791623.863264) can_bridge 1B8#0001020304
(1731791623.863641) can_bridge 1B9#0001020304
(1731791623.889788) can_bridge 210#00
(1731791623.890221) can_bridge 211#00
(1731791623.915939) can_bridge 218#00
(1731791623.916149) can_bridge 219#00
(1731791623.942184) can_bridge 221#00
(1731791623.942303) can_bridge 220#00
(1731791623.968393) can_bridge 0D8#2301020304
(1731791623.968685) can_bridge 0D9#2301020304
(1731791623.995138) can_bridge 0D1#9659812D6D73
(1731791623.995322) can_bridge 0D0#F037673796A7
(1731791624.022114) can_bridge 198#F5AEA23BBD2C
(1731791624.022555) can_bridge 199#F8025A71DB8F
(1731791624.048521) can_bridge 1B8#0001020304
(1731791624.048854) can_bridge 1B9#0001020304
(1731791624.074606) can_bridge 210#00
(1731791624.074803) can_bridge 211#00
(1731791624.100793) can_bridge 219#00
(1731791624.100883) can_bridge 218#00
(1731791624.126860) can_bridge 220#00
(1731791624.127247) can_bridge 221#00
(1731791624.152891) can_bridge 0D8#2301020304
(1731791624.153109) can_bridge 0D9#2301020304
(1731791624.179582) can_bridge 0D1#AD56649F8EA6
(1731791624.179581) can_bridge 0D0#513A58D425E9
(1731791624.206185) can_bridge 199#0CD9AB0626DA
(1731791624.206581) can_bridge 198#3E6656DB24B8
(1731791624.232367) can_bridge 1B9#0001020304
(1731791624.232684) can_bridge 1B8#0001020304
(1731791624.258900) can_bridge 211#00
(1731791624.259273) can_bridge 210#00
(1731791624.285395) can_bridge 219#00
(1731791624.285447) can_bridge 218#00
(1731791624.311516) can_bridge 220#00
(1731791624.311780) can_bridge 221#00
(1731791624.338588) can_bridge 0D9#2301020304
(1731791624.339301) can_bridge 0D8#2301020304
(1731791624.365405) can_bridge 0D1#1CE10EAA17D6
(1731791624.366122) can_bridge 0D0#EFA0E7E7E7FA
(1731791624.392112) can_bridge 199#E9D09AD7C9DF
(1731791624.392428) can_bridge 198#2AED94215AC4
(1731791624.418403) can_bridge 1B9#0001020304
(1731791624.418694) can_bridge 1B8#0001020304
(1731791624.444582) can_bridge 211#00
(1731791624.445101) can_bridge 210#00
(1731791624.471043) can_bridge 218#00
(1731791624.471107) can_bridge 219#00
(1731791624.497284) can_bridge 220#00
(1731791624.498685) can_bridge 221#00
(1731791624.523782) can_bridge 0D8#2301020304
(1731791624.524898) can_bridge 0D9#2301020304
(1731791624.549975) can_bridge 0D0#349C91BB836E
(1731791624.551334) can_bridge 0D1#87FD74D50393
(1731791624.576472) can_bridge 198#0FF88C35E8D3
(1731791624.577735) can_bridge 199#EFC579C0F263
(1731791624.602605) can_bridge 1B8#0001020304
(1731791624.603569) can_bridge 1B9#0001020304
(1731791624.629292) can_bridge 210#00
(1731791624.629549) can_bridge 211#00
(1731791624.655797) can_bridge 219#00
(1731791624.656303) can_bridge 218#00
(1731791624.682339) can_bridge 221#00
(1731791624.682426) can_bridge 220#00
(1731791624.708759) can_bridge 0D8#2301020304
(1731791624.708841) can_bridge 0D9#2301020304
(1731791624.735009) can_bridge 0D1#4CE1CBBF8EF8
(1731791624.735124) can_bridge 0D0#9E52981451AB
(1731791624.761690) can_bridge 199#F8609D3931B2
(1731791624.761690) can_bridge 198#479F772372CA
(1731791624.788019) can_bridge 1B8#0001020304
(1731791624.788017) can_bridge 1B9#0001020304
(1731791624.814294) can_bridge 210#00
(1731791624.814962) can_bridge 211#00
(1731791624.841344) can_bridge 218#00
(1731791624.841941) can_bridge 219#00
(1731791624.867899) can_bridge 220#00
(1731791624.868113) can_bridge 221#00
(1731791624.894083) can_bridge 0D8#2301020304
(1731791624.894448) can_bridge 0D9#2301020304
(1731791624.920361) can_bridge 0D0#E139BD094EA2
(1731791624.920689) can_bridge 0D1#071C7FFB09B6
(1731791624.946839) can_bridge 198#55C8B577476D
(1731791624.946885) can_bridge 199#4EFA5F9290E8
(1731791624.973281) can_bridge 1B8#0001020304
(1731791624.973286) can_bridge 1B9#0001020304
(1731791624.999683) can_bridge 210#00
(1731791624.999935) can_bridge 211#00
(1731791625.025874) can_bridge 218#00
(1731791625.026112) can_bridge 219#00
(1731791625.051924) can_bridge 220#00
(1731791625.052047) can_bridge 221#00
(1731791625.078132) can_bridge 0D9#2301020304
(1731791625.078461) can_bridge 0D8#2301020304
(1731791625.104598) can_bridge 0D0#A2320849146D
(1731791625.104790) can_bridge 0D1#95033FED3107
(1731791625.130815) can_bridge 198#B9B1A40AAF09
(1731791625.130972) can_bridge 199#0A99843348E1
(1731791625.158111) can_bridge 1B8#0001020304
(1731791625.158675) can_bridge 1B9#0001020304
(1731791625.184313) can_bridge 210#00
(1731791625.185020) can_bridge 211#00
(1731791625.210575) can_bridge 218#00
(1731791625.211022) can_bridge 219#00
(1731791625.236642) can_bridge 220#00
(1731791625.236944) can_bridge 221#00
(1731791625.262883) can_bridge 0D8#2301020304
(1731791625.263235) can_bridge 0D9#2301020304
(1731791625.289150) can_bridge 0D0#4E7153ADCB1B
(1731791625.289511) can_bridge 0D1#69D85E67C862
(1731791625.315491) can_bridge 198#1EC87EBBE024
(1731791625.315782) can_bridge 199#5C3A8D77AD9C
(1731791625.341573) can_bridge 1B8#0001020304
(1731791625.341881) can_bridge 1B9#0001020304
(1731791625.367666) can_bridge 210#00
(1731791625.367947) can_bridge 211#00
(1731791625.393786) can_bridge 218#00
(1731791625.394336) can_bridge 219#00
(1731791625.420222) can_bridge 220#00
(1731791625.420645) can_bridge 221#00
(1731791625.446573) can_bridge 0D8#2301020304
(1731791625.447044) can_bridge 0D9#2301020304
(1731791625.473262) can_bridge 0D0#537B062B63E6
(1731791625.473805) can_bridge 0D1#B0D50F4A75F3
(1731791625.499619) can_bridge 198#8286BD6F1E87
(1731791625.499785) can_bridge 199#9447E08ACBAA
(1731791625.526003) can_bridge 1B8#0001020304
(1731791625.526865) can_bridge 1B9#0001020304
(1731791625.552078) can_bridge 210#00
(1731791625.552868) can_bridge 211#00
(1731791625.578924) can_bridge 219#00
(1731791625.578925) can_bridge 218#00
(1731791625.605447) can_bridge 221#00
(1731791625.605710) can_bridge 220#00
(1731791625.632257) can_bridge 0D8#2301020304
(1731791625.632812) can_bridge 0D9#2301020304
(1731791625.658894) can_bridge 0D0#64CE999B20DA
(1731791625.659832) can_bridge 0D1#243719F86CF1
(1731791625.685517) can_bridge 198#C30A4324EC96
(1731791625.685797) can_bridge 199#01EE360FE329
(1731791625.711986) can_bridge 1B8#0001020304
(1731791625.712058) can_bridge 1B9#0001020304
(1731791625.738431) can_bridge 210#00
(1731791625.738574) can_bridge 211#00
(1731791625.764823) can_bridge 219#00
(1731791625.764881) can_bridge 218#00
(1731791625.791813) can_bridge 221#00
(1731791625.791980) can_bridge 220#00
(1731791625.818469) can_bridge 0D8#2301020304
(1731791625.818877) can_bridge 0D9#2301020304
(1731791625.844689) can_bridge 0D0#D6C09B8C3526
(1731791625.845161) can_bridge 0D1#89011D2ECA99
(1731791625.871351) can_bridge 198#9EB9DF01061C
(1731791625.871505) can_bridge 199#9A1373F447DD
(1731791625.898171) can_bridge 1B9#0001020304
(1731791625.898546) can_bridge 1B8#0001020304
(1731791625.925009) can_bridge 211#00
(1731791625.926984) can_bridge 210#00
(1731791625.952173) can_bridge 219#00
(1731791625.953826) can_bridge 218#00
(1731791625.978481) can_bridge 221#00
(1731791625.979828) can_bridge 220#00
(1731791626.004594) can_bridge 0D9#2301020304
(1731791626.005605) can_bridge 0D8#2301020304
(1731791626.030718) can_bridge 0D1#4CE9D1CD8C68
(1731791626.031630) can_bridge 0D0#B2122B59D2E9
(1731791626.056871) can_bridge 199#771996B68A82
(1731791626.057494) can_bridge 198#0333474B1EEB
(1731791626.083253) can_bridge 1B9#0001020304
(1731791626.083675) can_bridge 1B8#0001020304
(1731791626.109626) can_bridge 211#00
(1731791626.109979) can_bridge 210#00
(1731791626.135785) can_bridge 219#00
(1731791626.136213) can_bridge 218#00
(1731791626.162284) can_bridge 221#00
(1731791626.162762) can_bridge 220#00
(1731791626.188841) can_bridge 0D9#2301020304
(1731791626.189233) can_bridge 0D8#2301020304
(1731791626.215512) can_bridge 0D1#F310A1A1B219
(1731791626.216014) can_bridge 0D0#0D9CEBA03D0D
(1731791626.242352) can_bridge 199#47185EDBC6AA
(1731791626.242925) can_bridge 198#E7E8824A9043
(1731791626.269340) can_bridge 1B9#0001020304
(1731791626.269687) can_bridge 1B8#0001020304
(1731791626.295552) can_bridge 211#00
(1731791626.296002) can_bridge 210#00
(1731791626.321859) can_bridge 219#00
(1731791626.322324) can_bridge 218#00
(1731791626.348204) can_bridge 221#00
(1731791626.348518) can_bridge 220#00
(1731791626.374918) can_bridge 0D8#2301020304
(1731791626.375300) can_bridge 0D9#2301020304
(1731791626.402003) can_bridge 0D1#709FCAB5CA66
(1731791626.402474) can_bridge 0D0#A05D585AE0D4
(1731791626.428347) can_bridge 199#7D25B859C857
(1731791626.428723) can_bridge 198#3E2AE0AB8EB7
(1731791626.454997) can_bridge 1B9#0001020304
(1731791626.455120) can_bridge 1B8#0001020304
(1731791626.481403) can_bridge 210#00
(1731791626.481747) can_bridge 211#00
(1731791626.508539) can_bridge 219#00
(1731791626.509059) can_bridge 218#00
(1731791626.535394) can_bridge 221#00
(1731791626.535536) can_bridge 220#00
(1731791626.562168) can_bridge 0D8#2301020304
(1731791626.562462) can_bridge 0D9#2301020304
(1731791626.588530) can_bridge 0D0#4E5EDD3973D6
(1731791626.589071) can_bridge 0D1#EB3BF276206C
(1731791626.614901) can_bridge 198#BFCB316A4F48
(1731791626.615351) can_bridge 199#2519EA102245
(1731791626.641168) can_bridge 1B8#0001020304
(1731791626.641437) can_bridge 1B9#0001020304
(1731791626.667838) can_bridge 211#00
(1731791626.668800) can_bridge 210#00
(1731791626.696196) can_bridge 218#00
(1731791626.696577) can_bridge 219#00
(1731791626.723424) can_bridge 221#00
(1731791626.723757) can_bridge 220#00
(1731791626.749700) can_bridge 0D9#2301020304
(1731791626.750036) can_bridge 0D8#2301020304
(1731791626.776701) can_bridge 0D1#E0B500B92528
(1731791626.776862) can_bridge 0D0#049B0CC64DE3
(1731791626.803201) can_bridge 198#C5379DFFDB83
(1731791626.803565) can_bridge 199#7459260C27CA
(1731791626.829809) can_bridge 1B8#0001020304
(1731791626.830301) can_bridge 1B9#0001020304
(1731791626.856831) can_bridge 211#00
(1731791626.856828) can_bridge 210#00
(1731791626.883488) can_bridge 219#00
(1731791626.883830) can_bridge 218#00
(1731791626.909838) can_bridge 221#00
(1731791626.910204) can_bridge 220#00
(1731791626.936068) can_bridge 0D9#2301020304
(1731791626.936433) can_bridge 0D8#2301020304
(1731791626.962376) can_bridge 0D1#67889E169617
(1731791626.962650) can_bridge 0D0#E064CE200B35
(1731791626.988697) can_bridge 199#BCBE20B71283
(1731791626.988803) can_bridge 198#7EAAA3B3680F
(1731791627.014988) can_bridge 1B8#0001020304
(1731791627.015459) can_bridge 1B9#0001020304
(1731791627.042559) can_bridge 210#00
(1731791627.042938) can_bridge 211#00
(1731791627.069202) can_bridge 219#00
(1731791627.069569) can_bridge 218#00
(1731791627.095843) can_bridge 221#00
(1731791627.096017) can_bridge 220#00
(1731791627.122581) can_bridge 0D9#2301020304
(1731791627.122709) can_bridge 0D8#2301020304
(1731791627.149878) can_bridge 0D0#2493AEE8CC1D
(1731791627.150647) can_bridge 0D1#51C25EBBC3F8
(1731791627.176730) can_bridge 198#267FC7775BCE
(1731791627.176970) can_bridge 199#3F18454ECB7A
(1731791627.203477) can_bridge 1B8#0001020304
(1731791627.203892) can_bridge 1B9#0001020304
(1731791627.230009) can_bridge 210#00
(1731791627.230369) can_bridge 211#00
(1731791627.256300) can_bridge 218#00
(1731791627.256741) can_bridge 219#00
(1731791627.282727) can_bridge 220#00
(1731791627.284049) can_bridge 221#00
(1731791627.309181) can_bridge 0D8#2301020304
(1731791627.311624) can_bridge 0D9#2301020304
(1731791627.336624) can_bridge 0D0#7A713EF05918
(1731791627.338329) can_bridge 0D1#9184AE8B6D71
(1731791627.363304) can_bridge 198#46615480589A
(1731791627.364880) can_bridge 199#B1AAC81377DD
(1731791627.389882) can_bridge 1B8#0001020304
(1731791627.391404) can_bridge 1B9#0001020304
(1731791627.416355) can_bridge 210#00
(1731791627.417746) can_bridge 211#00
(1731791627.442863) can_bridge 218#00
(1731791627.444667) can_bridge 219#00
(1731791627.469213) can_bridge 220#00
(1731791627.470931) can_bridge 221#00
(1731791627.495992) can_bridge 0D8#2301020304
(1731791627.498469) can_bridge 0D9#2301020304
(1731791627.523321) can_bridge 0D0#151E5034F0AD
(1731791627.525334) can_bridge 0D1#88BC8CF87665
(1731791627.549651) can_bridge 198#FEA52BE505D9
(1731791627.551464) can_bridge 199#786DE538F5BF
(1731791627.576344) can_bridge 1B8#0001020304
(1731791627.578328) can_bridge 1B9#0001020304
(1731791627.602701) can_bridge 210#00
(1731791627.604210) can_bridge 211#00
(1731791627.629037) can_bridge 218#00
(1731791627.630069) can_bridge 219#00
(1731791627.655765) can_bridge 220#00
(1731791627.656395) can_bridge 221#00
(1731791627.682562) can_bridge 0D8#2301020304
(1731791627.683045) can_bridge 0D9#2301020304
(1731791627.708836) can_bridge 0D0#7A9177E24A4B
(1731791627.709325) can_bridge 0D1#D7886FC8E605
(1731791627.735139) can_bridge 198#590F7D25E01E
(1731791627.735329) can_bridge 199#7DA318B33014
(1731791627.761424) can_bridge 1B9#0001020304
(1731791627.761551) can_bridge 1B8#0001020304
(1731791627.787828) can_bridge 211#00
(1731791627.787907) can_bridge 210#00
(1731791627.814068) can_bridge 218#00
(1731791627.814454) can_bridge 219#00
(1731791627.841276) can_bridge 221#00
(1731791627.841776) can_bridge 220#00
(1731791627.867527) can_bridge 0D9#2301020304
(1731791627.867800) can_bridge 0D8#2301020304
(1731791627.894082) can_bridge 0D1#7BA8DE883AB2
(1731791627.894461) can_bridge 0D0#4100C735C5A5
(1731791627.920208) can_bridge 199#B68792C4E3A9
(1731791627.920598) can_bridge 198#8C9D6D69D36E
(1731791627.946368) can_bridge 1B9#0001020304
(1731791627.946460) can_bridge 1B8#0001020304
(1731791627.972795) can_bridge 210#00
(1731791627.972794) can_bridge 211#00
(1731791627.999271) can_bridge 219#00
(1731791627.999602) can_bridge 218#00
(1731791628.025304) can_bridge 221#00
(1731791628.026328) can_bridge 220#00
(1731791628.051402) can_bridge 0D9#2301020304
(1731791628.052138) can_bridge 0D8#2301020304
(1731791628.077878) can_bridge 0D1#20ACEC5AFA66
(1731791628.078418) can_bridge 0D0#905DE3360174
(1731791628.104095) can_bridge 199#1C3A1CC08762
(1731791628.104571) can_bridge 198#3A83F9AD9A83
(1731791628.130540) can_bridge 1B9#0001020304
(1731791628.130529) can_bridge 1B8#0001020304
(1731791628.156896) can_bridge 211#00
(1731791628.157118) can_bridge 210#00
(1731791628.183145) can_bridge 219#00
(1731791628.183305) can_bridge 218#00
(1731791628.209151) can_bridge 221#00
(1731791628.209267) can_bridge 220#00
(1731791628.235199) can_bridge 0D8#2301020304
(1731791628.235439) can_bridge 0D9#2301020304
(1731791628.261423) can_bridge 0D0#FD8528F2CFA3
(1731791628.261656) can_bridge 0D1#B3532F0658CB
(1731791628.287787) can_bridge 198#6873D609E0A5
(1731791628.288073) can_bridge 199#1469D0317E80
(1731791628.314381) can_bridge 1B8#0001020304
(1731791628.314628) can_bridge 1B9#0001020304
(1731791628.340548) can_bridge 210#00
(1731791628.340637) can_bridge 211#00
(1731791628.366582) can_bridge 219#00
(1731791628.366855) can_bridge 218#00
(1731791628.392699) can_bridge 221#00
(1731791628.392959) can_bridge 220#00
(1731791628.419114) can_bridge 0D8#2301020304
(1731791628.419190) can_bridge 0D9#2301020304
(1731791628.445370) can_bridge 0D1#6C2F499EF5C0
(1731791628.445675) can_bridge 0D0#40130C44259B
(1731791628.472123) can_bridge 198#48F39521F39F
(1731791628.472364) can_bridge 199#E955948F2C5A
(1731791628.498263) can_bridge 1B8#0001020304
(1731791628.498498) can_bridge 1B9#0001020304
(1731791628.524492) can_bridge 211#00
(1731791628.524614) can_bridge 210#00
(1731791628.550730) can_bridge 218#00
(1731791628.550723) can_bridge 219#00
(1731791628.577163) can_bridge 220#00
(1731791628.577156) can_bridge 221#00
(1731791628.603494) can_bridge 0D9#2301020304
(1731791628.603615) can_bridge 0D8#2301020304
(1731791628.630100) can_bridge 0D0#6A7C1682FB00
(1731791628.630590) can_bridge 0D1#17C7105525FC
(1731791628.656402) can_bridge 198#7CD2915F3C28
(1731791628.656759) can_bridge 199#A7D4DAC8A55E
(1731791628.682527) can_bridge 1B8#0001020304
(1731791628.682650) can_bridge 1B9#0001020304
(1731791628.708720) can_bridge 211#00
(1731791628.708891) can_bridge 210#00
(1731791628.735201) can_bridge 218#00
(1731791628.735261) can_bridge 219#00
(1731791628.761733) can_bridge 221#00
(1731791628.761838) can_bridge 220#00
(1731791628.788244) can_bridge 0D8#2301020304
(1731791628.789346) can_bridge 0D9#2301020304
(1731791628.814485) can_bridge 0D0#62C4B74E8E64
(1731791628.815547) can_bridge 0D1#929B7C4DE0E7
(1731791628.840566) can_bridge 198#9CED26E26D17
(1731791628.841458) can_bridge 199#7D8F20B054CE
(1731791628.866618) can_bridge 1B8#0001020304
(1731791628.867359) can_bridge 1B9#0001020304
(1731791628.893081) can_bridge 210#00
(1731791628.893813) can_bridge 211#00
(1731791628.920037) can_bridge 218#00
(1731791628.920149) can_bridge 219#00
(1731791628.946715) can_bridge 220#00
(1731791628.946865) can_bridge 221#00
(1731791628.973537) can_bridge 0D9#2301020304
(1731791628.973599) can_bridge 0D8#2301020304
(1731791629.000083) can_bridge 0D1#E5A6AFCC8A65
(1731791629.000333) can_bridge 0D0#BBFE706C117C
(1731791629.027000) can_bridge 199#65D418072FA6
(1731791629.026987) can_bridge 198#EF570B842299
(1731791629.054590) can_bridge 1B9#0001020304
(1731791629.055949) can_bridge 1B8#0001020304
(1731791629.082704) can_bridge 211#00
(1731791629.082703) can_bridge 210#00
(1731791629.109479) can_bridge 219#00
(1731791629.109886) can_bridge 218#00
(1731791629.136658) can_bridge 221#00
(1731791629.137165) can_bridge 220#00
(1731791629.163481) can_bridge 0D9#2301020304
(1731791629.163635) can_bridge 0D8#2301020304
(1731791629.189831) can_bridge 0D0#B4035BCC6415
(1731791629.189918) can_bridge 0D1#ADCDB70AA9B7
(1731791629.215948) can_bridge 198#A4DAA5F1F1B5
(1731791629.217084) can_bridge 199#00EB7E71AD3F
(1731791629.242184) can_bridge 1B8#0001020304
(1731791629.243862) can_bridge 1B9#0001020304
(1731791629.270288) can_bridge 210#00
(1731791629.270738) can_bridge 211#00
(1731791629.296810) can_bridge 218#00
(1731791629.297130) can_bridge 219#00
(1731791629.322889) can_bridge 220#00
(1731791629.323293) can_bridge 221#00
(1731791629.349138) can_bridge 0D8#2301020304
(1731791629.349559) can_bridge 0D9#2301020304
(1731791629.375441) can_bridge 0D0#3AAEA85C0089
(1731791629.375819) can_bridge 0D1#7EE4640068FB
(1731791629.401568) can_bridge 198#D059D8A397F2
(1731791629.401983) can_bridge 199#58A93A3B237D
(1731791629.427781) can_bridge 1B8#0001020304
(1731791629.428085) can_bridge 1B9#0001020304
(1731791629.454564) can_bridge 211#00
(1731791629.454934) can_bridge 210#00
(1731791629.480766) can_bridge 219#00
(1731791629.481128) can_bridge 218#00
(1731791629.506841) can_bridge 221#00
(1731791629.507038) can_bridge 220#00
(1731791629.533019) can_bridge 0D8#2301020304
(1731791629.533212) can_bridge 0D9#2301020304
(1731791629.559243) can_bridge 0D1#19086781F257
(1731791629.559457) can_bridge 0D0#95AD13E5C1D8
(1731791629.585636) can_bridge 199#381303148DED
(1731791629.586123) can_bridge 198#C3352CAD0F43
(1731791629.612492) can_bridge 1B9#0001020304
(1731791629.613349) can_bridge 1B8#0001020304
(1731791629.639051) can_bridge 211#00
(1731791629.639301) can_bridge 210#00
(1731791629.665411) can_bridge 219#00
(1731791629.665412) can_bridge 218#00
(1731791629.691500) can_bridge 221#00
(1731791629.691847) can_bridge 220#00
(1731791629.717846) can_bridge 0D9#2301020304
(1731791629.717991) can_bridge 0D8#2301020304
(1731791629.744175) can_bridge 0D1#1BC8669E0A7D
(1731791629.744398) can_bridge 0D0#787382AF2B1C
(1731791629.770936) can_bridge 198#AF5B78FD519E
(1731791629.771332) can_bridge 199#CBA5BE5F6AF9
(1731791629.797456) can_bridge 1B9#0001020304
(1731791629.797544) can_bridge 1B8#0001020304
(1731791629.823606) can_bridge 210#00
(1731791629.823922) can_bridge 211#00
(1731791629.849924) can_bridge 218#00
(1731791629.850071) can_bridge 219#00
(1731791629.876111) can_bridge 221#00
(1731791629.876236) can_bridge 220#00
(1731791629.902352) can_bridge 0D8#2301020304
(1731791629.902552) can_bridge 0D9#2301020304
(1731791629.929856) can_bridge 0D1#A1E1D2745640
(1731791629.930625) can_bridge 0D0#CC1D2AA233F1
(1731791629.956656) can_bridge 199#293539528A43
(1731791629.956965) can_bridge 198#6839641461E8
(1731791629.982786) can_bridge 1B9#0001020304
(1731791629.983022) can_bridge 1B8#0001020304
(1731791630.009006) can_bridge 211#00
(1731791630.009102) can_bridge 210#00
(1731791630.035358) can_bridge 219#00
(1731791630.035419) can_bridge 218#00
(1731791630.061674) can_bridge 220#00
(1731791630.062110) can_bridge 221#00
(1731791630.087970) can_bridge 0D8#2301020304
(1731791630.088089) can_bridge 0D9#2301020304
(1731791630.115046) can_bridge 0D1#E0F749D52073
(1731791630.115118) can_bridge 0D0#EDFFD734DA1A
(1731791630.141540) can_bridge 198#A30470F10E07
(1731791630.141715) can_bridge 199#FBF55BCD16DD
(1731791630.167726) can_bridge 1B9#0001020304
(1731791630.167874) can_bridge 1B8#0001020304
(1731791630.193914) can_bridge 211#00
(1731791630.194193) can_bridge 210#00
(1731791630.219980) can_bridge 219#00
(1731791630.220100) can_bridge 218#00
(1731791630.246401) can_bridge 221#00
(1731791630.246403) can_bridge 220#00
(1731791630.273254) can_bridge 0D8#2301020304
(1731791630.273516) can_bridge 0D9#2301020304
(1731791630.299461) can_bridge 0D0#06A4F8D850B7
(1731791630.299757) can_bridge 0D1#CFC75FF4A35B
(1731791630.325839) can_bridge 199#3A0ED18C5003
(1731791630.326127) can_bridge 198#9272E5D2973E
(1731791630.351932) can_bridge 1B9#0001020304
(1731791630.352084) can_bridge 1B8#0001020304
(1731791630.378174) can_bridge 210#00
(1731791630.378300) can_bridge 211#00
(1731791630.404585) can_bridge 219#00
(1731791630.404578) can_bridge 218#00
(1731791630.431206) can_bridge 220#00
(1731791630.431462) can_bridge 221#00
(1731791630.457517) can_bridge 0D9#2301020304
(1731791630.458219) can_bridge 0D8#2301020304
(1731791630.483790) can_bridge 0D1#4F1B0E927B4C
(1731791630.484291) can_bridge 0D0#B12252BE5BBA
(1731791630.510136) can_bridge 199#1911E0116EC8
(1731791630.510405) can_bridge 198#428483111DAF
(1731791630.536589) can_bridge 1B9#0001020304
(1731791630.537067) can_bridge 1B8#0001020304
(1731791630.563256) can_bridge 211#00
(1731791630.563542) can_bridge 210#00
(1731791630.589370) can_bridge 219#00
(1731791630.589749) can_bridge 218#00
(1731791630.615830) can_bridge 220#00
(1731791630.615897) can_bridge 221#00
(1731791630.642077) can_bridge 0D8#2301020304
(1731791630.642407) can_bridge 0D9#2301020304
(1731791630.668349) can_bridge 0D0#45685F4C8533
(1731791630.668650) can_bridge 0D1#8E79E96BC812
(1731791630.694989) can_bridge 198#D5C3579987A7
(1731791630.696895) can_bridge 199#F4C22ED94A77
(1731791630.722061) can_bridge 1B8#0001020304
(1731791630.723460) can_bridge 1B9#0001020304
(1731791630.748579) can_bridge 210#00
(1731791630.749720) can_bridge 211#00
(1731791630.774628) can_bridge 218#00
(1731791630.775599) can_bridge 219#00
(1731791630.800667) can_bridge 220#00
(1731791630.801574) can_bridge 221#00
(1731791630.826758) can_bridge 0D8#2301020304
(1731791630.827801) can_bridge 0D9#2301020304
(1731791630.852983) can_bridge 0D0#3C33061F4758
(1731791630.855054) can_bridge 0D1#46879A109057
(1731791630.880793) can_bridge 198#01B5165748AD
(1731791630.881464) can_bridge 199#69936397B168
(1731791630.907714) can_bridge 1B8#0001020304
(1731791630.907967) can_bridge 1B9#0001020304
(1731791630.934032) can_bridge 210#00
(1731791630.934391) can_bridge 211#00
(1731791630.960114) can_bridge 218#00
(1731791630.960332) can_bridge 219#00
(1731791630.986384) can_bridge 221#00
(1731791630.986792) can_bridge 220#00
(1731791631.012664) can_bridge 0D9#2301020304
(1731791631.012960) can_bridge 0D8#2301020304
(1731791631.039121) can_bridge 0D0#25787787DFA2
(1731791631.039426) can_bridge 0D1#C12225BE00AA
(1731791631.065949) can_bridge 199#633C0ED70AB3
(1731791631.066334) can_bridge 198#3F03A2AEDA00
(1731791631.092117) can_bridge 1B9#0001020304
(1731791631.092584) can_bridge 1B8#0001020304
(1731791631.118263) can_bridge 211#00
(1731791631.118460) can_bridge 210#00
(1731791631.144570) can_bridge 219#00
(1731791631.144760) can_bridge 218#00
(1731791631.170761) can_bridge 221#00
(1731791631.171075) can_bridge 220#00
(1731791631.197762) can_bridge 0D9#2301020304
(1731791631.198116) can_bridge 0D8#2301020304
(1731791631.224490) can_bridge 0D0#EAF02E95B7BA
(1731791631.224489) can_bridge 0D1#20BCD41507C4
(1731791631.250850) can_bridge 199#5607B0991961
(1731791631.250919) can_bridge 198#C824EB6AE6B7
(1731791631.276985) can_bridge 1B9#0001020304
(1731791631.277067) can_bridge 1B8#0001020304
(1731791631.303415) can_bridge 210#00
(1731791631.303416) can_bridge 211#00
(1731791631.329680) can_bridge 218#00
(1731791631.330294) can_bridge 219#00
(1731791631.357133) can_bridge 220#00
(1731791631.357928) can_bridge 221#00
(1731791631.383929) can_bridge 0D8#2301020304
(1731791631.384151) can_bridge 0D9#2301020304
(1731791631.410099) can_bridge 0D0#12ED4EE94DC9
(1731791631.410510) can_bridge 0D1#072A0F3BF673
(1731791631.436345) can_bridge 198#8594E8731D64
(1731791631.436622) can_bridge 199#80F5E4461C1B
(1731791631.462635) can_bridge 1B8#0001020304
(1731791631.462943) can_bridge 1B9#0001020304
(1731791631.489270) can_bridge 210#00
(1731791631.489270) can_bridge 211#00
(1731791631.515710) can_bridge 218#00
(1731791631.515817) can_bridge 219#00
(1731791631.542376) can_bridge 221#00
(1731791631.542677) can_bridge 220#00
(1731791631.568418) can_bridge 0D9#2301020304
(1731791631.569415) can_bridge 0D8#2301020304
(1731791631.594569) can_bridge 0D1#C31BCA168E27
(1731791631.595498) can_bridge 0D0#A3CB3444028B
(1731791631.620681) can_bridge 199#B5A43EA594B8
(1731791631.621519) can_bridge 198#83E00357F245
(1731791631.647242) can_bridge 1B9#0001020304
(1731791631.648778) can_bridge 1B8#0001020304
(1731791631.675001) can_bridge 211#00
(1731791631.675605) can_bridge 210#00
(1731791631.701910) can_bridge 219#00
(1731791631.702309) can_bridge 218#00
(1731791631.728332) can_bridge 220#00
(1731791631.728620) can_bridge 221#00
(1731791631.754633) can_bridge 0D8#2301020304
(1731791631.754694) can_bridge 0D9#2301020304
(1731791631.780708) can_bridge 0D0#25D97C415638
(1731791631.780831) can_bridge 0D1#B14292AB3900
(1731791631.807100) can_bridge 198#B13F37730AF2
(1731791631.807285) can_bridge 199#4798E335EBFF
(1731791631.833263) can_bridge 1B8#0001020304
(1731791631.834130) can_bridge 1B9#0001020304
(1731791631.859721) can_bridge 210#00
(1731791631.860738) can_bridge 211#00
(1731791631.885785) can_bridge 218#00
(1731791631.887512) can_bridge 219#00
(1731791631.911794) can_bridge 220#00
(1731791631.913288) can_bridge 221#00
(1731791631.937886) can_bridge 0D8#2301020304
(1731791631.939126) can_bridge 0D9#2301020304
(1731791631.964029) can_bridge 0D0#08CEF6E9B30B
(1731791631.965625) can_bridge 0D1#B559B128BC52
(1731791631.991633) can_bridge 198#F178E1409770
(1731791631.993099) can_bridge 199#CC611F0EE51C
(1731791632.018190) can_bridge 1B8#0001020304
(1731791632.019258) can_bridge 1B9#0001020304
(1731791632.044237) can_bridge 210#00
(1731791632.045933) can_bridge 211#00
(1731791632.070397) can_bridge 218#00
(1731791632.071831) can_bridge 219#00
(1731791632.096579) can_bridge 220#00
(1731791632.098052) can_bridge 221#00
(1731791632.123042) can_bridge 0D8#2301020304
(1731791632.124567) can_bridge 0D9#2301020304
(1731791632.150785) can_bridge 0D0#67A3A7577A38
(1731791632.151207) can_bridge 0D1#C5F1E45AA268
(1731791632.177017) can_bridge 198#ABC019B1A188
(1731791632.177148) can_bridge 199#152B157F0A84
(1731791632.203301) can_bridge 1B9#0001020304
(1731791632.203417) can_bridge 1B8#0001020304
(1731791632.229545) can_bridge 211#00
(1731791632.229764) can_bridge 210#00
(1731791632.255633) can_bridge 219#00
(1731791632.255842) can_bridge 218#00
(1731791632.281973) can_bridge 220#00
(1731791632.282136) can_bridge 221#00
(1731791632.308756) can_bridge 0D9#2301020304
(1731791632.308968) can_bridge 0D8#2301020304
(1731791632.335123) can_bridge 0D0#4DC801D95ADB
(1731791632.335616) can_bridge 0D1#D097791E7B0F
(1731791632.361381) can_bridge 198#F0446DE03277
(1731791632.361710) can_bridge 199#1F26BF208ECE
(1731791632.387816) can_bridge 1B8#0001020304
(1731791632.387901) can_bridge 1B9#0001020304
(1731791632.414003) can_bridge 211#00
(1731791632.414176) can_bridge 210#00
(1731791632.440695) can_bridge 218#00
(1731791632.440880) can_bridge 219#00
(1731791632.467922) can_bridge 221#00
(1731791632.468215) can_bridge 220#00
(1731791632.494682) can_bridge 0D8#2301020304
(1731791632.495137) can_bridge 0D9#2301020304
(1731791632.521582) can_bridge 0D0#275375F9EFFD
(1731791632.522266) can_bridge 0D1#8951E9E09898
(1731791632.548275) can_bridge 198#0683D1651247
(1731791632.548649) can_bridge 199#78E63E2DE6AF
(1731791632.575474) can_bridge 1B8#0001020304
(1731791632.575759) can_bridge 1B9#0001020304
(1731791632.603069) can_bridge 211#00
(1731791632.603379) can_bridge 210#00
(1731791632.630606) can_bridge 219#00
(1731791632.630824) can_bridge 218#00
(1731791632.657243) can_bridge 221#00
(1731791632.657721) can_bridge 220#00
(1731791632.683584) can_bridge 0D9#2301020304
(1731791632.683847) can_bridge 0D8#2301020304
(1731791632.710225) can_bridge 0D1#75E1C7CAB0D8
(1731791632.710552) can_bridge 0D0#849606A01F9C
(1731791632.736793) can_bridge 199#EC055EC93865
(1731791632.737274) can_bridge 198#521D4C7E0462
(1731791632.763195) can_bridge 1B9#0001020304
(1731791632.764790) can_bridge 1B8#0001020304
(1731791632.791063) can_bridge 211#00
(1731791632.791856) can_bridge 210#00
(1731791632.818231) can_bridge 219#00
(1731791632.818920) can_bridge 218#00
(1731791632.844746) can_bridge 221#00
(1731791632.845294) can_bridge 220#00
(1731791632.871078) can_bridge 0D9#2301020304
(1731791632.871538) can_bridge 0D8#2301020304
(1731791632.897477) can_bridge 0D1#D722A359261B
(1731791632.898773) can_bridge 0D0#57E72A773B28
(1731791632.924108) can_bridge 199#AEEE7C20645A
(1731791632.924815) can_bridge 198#0EAB0330D4EF
(1731791632.951084) can_bridge 1B9#0001020304
(1731791632.951177) can_bridge 1B8#0001020304
(1731791632.977873) can_bridge 211#00
(1731791632.978387) can_bridge 210#00
(1731791633.004248) can_bridge 219#00
(1731791633.004945) can_bridge 218#00
(1731791633.030710) can_bridge 221#00
(1731791633.031080) can_bridge 220#00
(1731791633.057117) can_bridge 0D9#2301020304
(1731791633.057254) can_bridge 0D8#2301020304
(1731791633.084088) can_bridge 0D1#B1ECD5ADE6DC
(1731791633.084410) can_bridge 0D0#FF55E4BCF968
(1731791633.111387) can_bridge 198#F3DA87BC949B
(1731791633.111887) can_bridge 199#1A7F0F684D1A
(1731791633.138682) can_bridge 1B8#0001020304
(1731791633.139368) can_bridge 1B9#0001020304
(1731791633.165376) can_bridge 210#00
(1731791633.165599) can_bridge 211#00
(1731791633.191890) can_bridge 219#00
(1731791633.192273) can_bridge 218#00
(1731791633.218697) can_bridge 220#00
(1731791633.218811) can_bridge 221#00
(1731791633.245426) can_bridge 0D9#2301020304
(1731791633.245638) can_bridge 0D8#2301020304
(1731791633.272621) can_bridge 0D0#D46F70057AE0
(1731791633.273238) can_bridge 0D1#AA15412AD87D
(1731791633.299409) can_bridge 198#D0D22AA479D8
(1731791633.300221) can_bridge 199#EBD07EBB701A
(1731791633.327214) can_bridge 1B8#0001020304
(1731791633.327367) can_bridge 1B9#0001020304
(1731791633.354187) can_bridge 210#00
(1731791633.354321) can_bridge 211#00
(1731791633.380543) can_bridge 219#00
(1731791633.380654) can_bridge 218#00
(1731791633.406836) can_bridge 221#00
(1731791633.407788) can_bridge 220#00
(1731791633.433583) can_bridge 0D9#2301020304
(1731791633.434292) can_bridge 0D8#2301020304
(1731791633.461982) can_bridge 0D1#6A880B36DFFC
(1731791633.462137) can_bridge 0D0#B522BCD395F9
(1731791633.489301) can_bridge 199#EBE267206F08
(1731791633.489496) can_bridge 198#2A4362C1BF0E
(1731791633.516253) can_bridge 1B8#0001020304
(1731791633.516245) can_bridge 1B9#0001020304
(1731791633.543007) can_bridge 211#00
(1731791633.543211) can_bridge 210#00
(1731791633.569539) can_bridge 218#00
(1731791633.570362) can_bridge 219#00
(1731791633.597439) can_bridge 220#00
(1731791633.598982) can_bridge 221#00
(1731791633.624161) can_bridge 0D8#2301020304
(1731791633.626010) can_bridge 0D9#2301020304
(1731791633.652292) can_bridge 0D0#556A06123DE1
(1731791633.653099) can_bridge 0D1#671AB84A7871
(1731791633.680300) can_bridge 198#C2B29B44DBAC
(1731791633.681799) can_bridge 199#B3EB79591182
(1731791633.706880) can_bridge 1B8#0001020304
(1731791633.708312) can_bridge 1B9#0001020304
(1731791633.733234) can_bridge 210#00
(1731791633.734548) can_bridge 211#00
(1731791633.759415) can_bridge 218#00
(1731791633.760752) can_bridge 219#00
(1731791633.787131) can_bridge 220#00
(1731791633.787207) can_bridge 221#00
(1731791633.814350) can_bridge 0D9#2301020304
(1731791633.814751) can_bridge 0D8#2301020304
(1731791633.841007) can_bridge 0D0#C5F8DCB0A9F1
(1731791633.841077) can_bridge 0D1#D44F0761CE61
(1731791633.867331) can_bridge 199#AF3D6AE2D46F
(1731791633.867844) can_bridge 198#53D2E457416A
(1731791633.893452) can_bridge 1B9#0001020304
(1731791633.893853) can_bridge 1B8#0001020304
(1731791633.919830) can_bridge 211#00
(1731791633.919914) can_bridge 210#00
(1731791633.946173) can_bridge 219#00
(1731791633.946548) can_bridge 218#00
(1731791633.972978) can_bridge 220#00
(1731791633.972978) can_bridge 221#00
(1731791633.999440) can_bridge 0D9#2301020304
(1731791633.999935) can_bridge 0D8#2301020304
(1731791634.025814) can_bridge 0D1#430CD7E96F23
(1731791634.026120) can_bridge 0D0#10F247177C1C
(1731791634.051921) can_bridge 199#D587DCF1C9B8
(1731791634.052314) can_bridge 198#5AA1D21A4A8B
(1731791634.078176) can_bridge 1B9#0001020304
(1731791634.078389) can_bridge 1B8#0001020304
(1731791634.104753) can_bridge 211#00
(1731791634.105138) can_bridge 210#00
(1731791634.131162) can_bridge 219#00
(1731791634.131544) can_bridge 218#00
(1731791634.157738) can_bridge 221#00
(1731791634.158110) can_bridge 220#00
(1731791634.184000) can_bridge 0D9#2301020304
(1731791634.184106) can_bridge 0D8#2301020304
(1731791634.210581) can_bridge 0D1#8CD795D60018
(1731791634.210801) can_bridge 0D0#B3BF14EC3FF0
(1731791634.236759) can_bridge 199#55D4B886C6C1
(1731791634.237099) can_bridge 198#C97DCB981410
(1731791634.263301) can_bridge 1B8#0001020304
(1731791634.263367) can_bridge 1B9#0001020304
(1731791634.289616) can_bridge 211#00
(1731791634.290191) can_bridge 210#00
(1731791634.316325) can_bridge 219#00
(1731791634.316686) can_bridge 218#00
(1731791634.342785) can_bridge 221#00
(1731791634.343147) can_bridge 220#00
(1731791634.368998) can_bridge 0D9#2301020304
(1731791634.369060) can_bridge 0D8#2301020304
(1731791634.395207) can_bridge 0D0#BA7A6216E0BA
(1731791634.395487) can_bridge 0D1#0F6FEB404934
(1731791634.421315) can_bridge 198#5905C9C571F6
(1731791634.421460) can_bridge 199#E812EBC58786
(1731791634.447616) can_bridge 1B9#0001020304
(1731791634.448754) can_bridge 1B8#0001020304
(1731791634.474411) can_bridge 211#00
(1731791634.474800) can_bridge 210#00
(1731791634.500608) can_bridge 219#00
(1731791634.500916) can_bridge 218#00
(1731791634.526718) can_bridge 221#00
(1731791634.527013) can_bridge 220#00
(1731791634.552795) can_bridge 0D9#2301020304
(1731791634.553093) can_bridge 0D8#2301020304
(1731791634.579129) can_bridge 0D1#81E936275A8D
(1731791634.579458) can_bridge 0D0#D0786AD65FBC
(1731791634.605486) can_bridge 199#E48D4673DB4D
(1731791634.605766) can_bridge 198#B017429804D9
(1731791634.631724) can_bridge 1B9#0001020304
(1731791634.632024) can_bridge 1B8#0001020304
(1731791634.657855) can_bridge 211#00
(1731791634.658146) can_bridge 210#00
(1731791634.683889) can_bridge 219#00
(1731791634.684182) can_bridge 218#00
(1731791634.709993) can_bridge 221#00
(1731791634.710278) can_bridge 220#00
(1731791634.736431) can_bridge 0D9#2301020304
(1731791634.737397) can_bridge 0D8#2301020304
(1731791634.763905) can_bridge 0D0#DE7D6B17F9D5
(1731791634.763969) can_bridge 0D1#E3C22980FF7E
(1731791634.790691) can_bridge 198#04963F15BA3B
(1731791634.791581) can_bridge 199#A02C2BCF5345
(1731791634.816710) can_bridge 1B8#0001020304
(1731791634.817653) can_bridge 1B9#0001020304
(1731791634.842760) can_bridge 210#00
(1731791634.843507) can_bridge 211#00
(1731791634.869097) can_bridge 218#00
(1731791634.869646) can_bridge 219#00
(1731791634.895500) can_bridge 220#00
(1731791634.896080) can_bridge 221#00
(1731791634.922235) can_bridge 0D8#2301020304
(1731791634.922310) can_bridge 0D9#2301020304
(1731791634.948643) can_bridge 0D0#EB2A3B9445C1
(1731791634.948923) can_bridge 0D1#545D46B4F638
(1731791634.974784) can_bridge 198#36BE8B5F35D9
(1731791634.975085) can_bridge 199#4860800BB6F1
(1731791635.000846) can_bridge 1B8#0001020304
(1731791635.000946) can_bridge 1B9#0001020304
(1731791635.026950) can_bridge 211#00
(1731791635.027017) can_bridge 210#00
(1731791635.053240) can_bridge 218#00
(1731791635.053635) can_bridge 219#00
(1731791635.080293) can_bridge 220#00
(1731791635.080665) can_bridge 221#00
(1731791635.106909) can_bridge 0D8#2301020304
(1731791635.107013) can_bridge 0D9#2301020304
(1731791635.133231) can_bridge 0D0#70AA9D423D2A
(1731791635.134205) can_bridge 0D1#05547D39EF7B
(1731791635.159350) can_bridge 198#2CE02F985CF9
(1731791635.160316) can_bridge 199#A32937820C9F
(1731791635.185478) can_bridge 1B8#0001020304
(1731791635.186216) can_bridge 1B9#0001020304
(1731791635.211787) can_bridge 210#00
(1731791635.212819) can_bridge 211#00
(1731791635.239384) can_bridge 218#00
(1731791635.240045) can_bridge 219#00
(1731791635.266903) can_bridge 220#00
(1731791635.267183) can_bridge 221#00
(1731791635.293198) can_bridge 0D8#2301020304
(1731791635.293444) can_bridge 0D9#2301020304
(1731791635.319393) can_bridge 0D0#3888A6D1C691
(1731791635.320655) can_bridge 0D1#3A2F97269481
(1731791635.345793) can_bridge 198#EF21ED731927
(1731791635.346857) can_bridge 199#911B97572C0E
(1731791635.372043) can_bridge 1B8#0001020304
(1731791635.372979) can_bridge 1B9#0001020304
(1731791635.398983) can_bridge 211#00
(1731791635.399376) can_bridge 210#00
(1731791635.425806) can_bridge 218#00
(1731791635.425973) can_bridge 219#00
(1731791635.452122) can_bridge 220#00
(1731791635.452194) can_bridge 221#00
(1731791635.478266) can_bridge 0D9#2301020304
(1731791635.478562) can_bridge 0D8#2301020304
(1731791635.504607) can_bridge 0D1#D78838D9E148
(1731791635.504926) can_bridge 0D0#20B1794E033D
(1731791635.530728) can_bridge 199#854806400FB2
(1731791635.530960) can_bridge 198#8791F60F4984
(1731791635.556974) can_bridge 1B8#0001020304
(1731791635.556975) can_bridge 1B9#0001020304
(1731791635.583736) can_bridge 210#00
(1731791635.583919) can_bridge 211#00
(1731791635.610111) can_bridge 218#00
(1731791635.610293) can_bridge 219#00
(1731791635.636170) can_bridge 220#00
(1731791635.636655) can_bridge 221#00
(1731791635.662676) can_bridge 0D8#2301020304
(1731791635.662735) can_bridge 0D9#2301020304
(1731791635.688779) can_bridge 0D1#11FA2F25C0CF
(1731791635.688963) can_bridge 0D0#D0792EF2D136
(1731791635.715417) can_bridge 199#0221FAD1FCC0
(1731791635.715504) can_bridge 198#0D660273F2AF
(1731791635.742100) can_bridge 1B9#0001020304
(1731791635.742438) can_bridge 1B8#0001020304
(1731791635.768143) can_bridge 211#00
(1731791635.768385) can_bridge 210#00
(1731791635.794217) can_bridge 219#00
(1731791635.794338) can_bridge 218#00
(1731791635.820307) can_bridge 220#00
(1731791635.820381) can_bridge 221#00
(1731791635.846464) can_bridge 0D9#2301020304
(1731791635.846635) can_bridge 0D8#2301020304
(1731791635.872899) can_bridge 0D0#31902A1E38F9
(1731791635.872994) can_bridge 0D1#F8EAFBF023B0
(1731791635.899356) can_bridge 198#156F027AE996
(1731791635.900286) can_bridge 199#315709683D32
(1731791635.925393) can_bridge 1B8#0001020304
(1731791635.926315) can_bridge 1B9#0001020304
(1731791635.951388) can_bridge 210#00
(1731791635.952272) can_bridge 211#00
(1731791635.977433) can_bridge 218#00
(1731791635.978301) can_bridge 219#00
(1731791636.004393) can_bridge 220#00
(1731791636.004643) can_bridge 221#00
(1731791636.031938) can_bridge 0D9#2301020304
(1731791636.032071) can_bridge 0D8#2301020304
(1731791636.058658) can_bridge 0D0#87FA024F1E52
(1731791636.059087) can_bridge 0D1#268E7BE52142
(1731791636.084799) can_bridge 198#C02EEA829754
(1731791636.085023) can_bridge 199#5BF4A2F94FF9
(1731791636.110830) can_bridge 1B8#0001020304
(1731791636.111055) can_bridge 1B9#0001020304
(1731791636.136859) can_bridge 210#00
