(1687890452.362282) can1 680#48FF0C
(1687890452.362506) can1 204#CCCCCCCCFFFFFFFF
(1687890452.368825) can1 1806E5F4#0498008B01000000
(1687890452.369033) can1 203#CCCCCCCCCCCCCCCC
(1687890452.369033) can1 101#CCCCCCCCCCCCCCCC
(1687890452.369033) can1 102#CCCCCCCCCCCCCCCC
(1687890452.369033) can1 103#CCCCCCCCCCCCCCCC
(1687890452.370984) can1 681#00000000010000
(1687890452.378611) can1 680#25FF5D
(1687890452.378828) can1 202#CCCCCCCCCCCCCCCC
(1687890452.388618) can1 680#1EFFE5
(1687890452.388844) can1 201#CCCCCCCCCCCCCCCC
(1687890452.398729) can1 200#0CCC929205070808
(1687890452.566221) can1 500#454C495448494F4E
(1687890452.570069) can0 064#1A
(1687890452.573300) can0 064#33
(1687890452.573509) can1 501#32434E46322E3335
(1687890452.578294) can0 064#37
(1687890452.578934) can1 502#0C04A52A050042
(1687890452.581812) can0 064#42
(1687890452.585625) can0 064#44
(1687890452.589112) can1 503#0071281B281B
(1687890452.589647) can0 0C8#1A
(1687890452.591227) can0 0CD#010000010101
(1687890452.593863) can0 0C8#33
(1687890452.594038) can0 0CD#020000241C1A
(1687890452.597876) can0 0C8#37
(1687890452.598038) can0 0CD#0000000000
(1687890452.599011) can1 504#0000000D004F
(1687890452.603098) can0 0C8#42
(1687890452.603241) can0 0CD#00
(1687890452.604079) can0 0C8#44
(1687890452.604231) can0 0CD#01
(1687890452.608981) can1 505#000000D200000083
(1687890452.619048) can1 506#5D001000E60023
(1687890452.628924) can1 507#10000F19120C
(1687890452.638936) can1 508#0091051B0806
(1687890453.363085) can1 680#48FF0C
(1687890453.363308) can1 204#CCCCCCCCFFFFFFFF
(1687890453.369624) can1 1806E5F4#0498008B01000000
(1687890453.369866) can1 203#CCCCCCCCCCCCCCCC
(1687890453.371160) can1 681#00000000010000
(1687890453.379402) can1 680#25FF5D
(1687890453.379629) can1 202#CCCCCCCCCCCCCCCC
(1687890453.389420) can1 680#1EFFE5
(1687890453.389649) can1 201#CCCCCCCCCCCCCCCC
(1687890453.399533) can1 200#0DCC919105070808
(1687890453.566905) can1 500#454C495448494F4E
(1687890453.574097) can1 501#32434E46322E3335
(1687890453.579669) can1 502#0C04A62A050042
(1687890453.589804) can1 503#0071281B281B
(1687890453.599716) can1 504#0000000D004F
(1687890453.609682) can1 505#000000D200000083
(1687890453.619768) can1 506#5D001000E60023
(1687890453.629652) can1 507#10000F19120C
(1687890453.639657) can1 508#0091051B0806
(1687890454.363824) can1 680#48FF0C
(1687890454.363994) can1 204#CCCCCCCCFFFFFFFF
(1687890454.370359) can1 1806E5F4#0498008B01000000
(1687890454.370534) can1 203#CCCCCCCCCCCCCCCC
(1687890454.371744) can1 681#00000000010000
(1687890454.380137) can1 680#25FF5D
(1687890454.380359) can1 202#CCCCCCCCCCCCCCCC
(1687890454.390184) can1 680#1EFFE5
(1687890454.390336) can1 201#CCCCCCCCCCCCCCCC
(1687890454.400297) can1 200#0ECC8F8F05070808
(1687890454.567629) can1 500#454C495448494F4E
(1687890454.574414) can0 064#1A
(1687890454.574912) can1 501#32434E46322E3335
(1687890454.577719) can0 064#33
(1687890454.580444) can1 502#0C04A72A050042
(1687890454.581478) can0 064#37
(1687890454.586218) can0 064#42
(1687890454.590040) can0 064#44
(1687890454.590546) can1 503#0071281B281B
(1687890454.595332) can0 0C8#1A
(1687890454.596818) can0 0CD#010100010101
(1687890454.598970) can0 0C8#33
(1687890454.599133) can0 0CD#020000241C1C
(1687890454.600450) can1 504#0000000D004F
(1687890454.602322) can0 0C8#37
(1687890454.602486) can0 0CD#0000000000
(1687890454.606936) can0 0C8#42
(1687890454.607104) can0 0CD#00
(1687890454.610424) can1 505#000000D200000083
(1687890454.611453) can0 0C8#44
(1687890454.611612) can0 0CD#01
(1687890454.620477) can1 506#5D001000E60023
(1687890454.630364) can1 507#10000F19120C
(1687890454.640372) can1 508#0091051B0806
(1687890455.364547) can1 680#48FF0C
(1687890455.364716) can1 204#CCCCCCCCFFFFFFFF
(1687890455.371081) can1 1806E5F4#0498008B01000000
(1687890455.371241) can1 203#CCCCCCCCCCCCCCCC
(1687890455.372865) can1 681#00000000010000
(1687890455.380872) can1 680#25FF5D
(1687890455.381039) can1 202#CCCCCCCCCCCCCCCC
(1687890455.390883) can1 680#1EFFE5
(1687890455.391088) can1 201#CCCCCCCCCCCCCCCC
(1687890455.401029) can1 200#0FCC8F8F05070808
(1687890455.568327) can1 500#454C495448494F4E
(1687890455.575513) can1 501#32434E46322E3335
(1687890455.581069) can1 502#0C04A82A050042
(1687890455.591231) can1 503#0071281B281B
(1687890455.601176) can1 504#0000000D004F
(1687890455.611165) can1 505#000000D200000083
(1687890455.621204) can1 506#5D001000E60023
(1687890455.631120) can1 507#10000F19120C
(1687890455.641095) can1 508#0091051B0806
(1687890456.365266) can1 680#48FF0C
(1687890456.365458) can1 204#CCCCCCCCFFFFFFFF
(1687890456.371812) can1 1806E5F4#0498008B01000000
(1687890456.371967) can1 203#CCCCCCCCCCCCCCCC
(1687890456.372963) can1 681#00000000010000
(1687890456.381605) can1 680#25FF5D
(1687890456.381766) can1 202#CCCCCCCCCCCCCCCC
(1687890456.391592) can1 680#1EFFE5
(1687890456.391816) can1 201#CCCCCCCCCCCCCCCC
(1687890456.401701) can1 200#10CC909005070808
(1687890456.569063) can1 500#454C495448494F4E
(1687890456.576300) can1 501#32434E46322E3335
(1687890456.576983) can0 064#1A
(1687890456.580574) can0 064#33
(1687890456.581800) can1 502#0C04A92A050042
(1687890456.584127) can0 064#37
(1687890456.589545) can0 064#42
(1687890456.591994) can1 503#0071281B281B
(1687890456.592878) can0 064#44
(1687890456.598373) can0 0C8#1A
(1687890456.599897) can0 0CD#000101010101
(1687890456.601915) can1 504#0000000D004F
(1687890456.603098) can0 0C8#33
(1687890456.603271) can0 0CD#020000241C1C
(1687890456.610776) can0 0C8#37
(1687890456.610923) can0 0CD#0000000000
(1687890456.611853) can1 505#000000D200000083
(1687890456.615463) can0 0C8#42
(1687890456.615640) can0 0CD#00
(1687890456.618377) can0 0CD#01
(1687890456.618476) can0 0C8#44
(1687890456.621918) can1 506#5D001000E60023
(1687890456.631797) can1 507#10000F19120C
(1687890456.641807) can1 508#0091051B0806
(1687890457.365985) can1 680#48FF0C
(1687890457.366150) can1 204#CCCCCCCCFFFFFFFF
(1687890457.372510) can1 1806E5F4#0498008B01000000
(1687890457.372668) can1 203#CCCCCCCCCCCCCCCC
(1687890457.374520) can1 681#00000000010000
(1687890457.382298) can1 680#25FF5D
(1687890457.382452) can1 202#CCCCCCCCCCCCCCCC
(1687890457.392317) can1 680#1EFFE5
(1687890457.392473) can1 201#CCCCCCCCCCCCCCCC
(1687890457.402427) can1 200#11CC909005070808
(1687890457.569790) can1 500#454C495448494F4E
(1687890457.576942) can1 501#32434E46322E3335
(1687890457.582501) can1 502#0C04AA2A050042
(1687890457.592668) can1 503#0071281B281B
(1687890457.602603) can1 504#0000000D004F
(1687890457.612567) can1 505#000000D200000083
(1687890457.622637) can1 506#5D001000E60023
(1687890457.632517) can1 507#10000F19120C
(1687890457.642523) can1 508#0091051B0806
(1687890458.366701) can1 680#48FF0C
(1687890458.366861) can1 204#CCCCCCCCFFFFFFFF
(1687890458.373235) can1 1806E5F4#0498008B01000000
(1687890458.373384) can1 203#CCCCCCCCCCCCCCCC
(1687890458.374625) can1 681#00000000010000
(1687890458.382989) can1 680#25FF5D
(1687890458.383214) can1 202#CCCCCCCCCCCCCCCC
(1687890458.393009) can1 680#1EFFE5
(1687890458.393225) can1 201#CCCCCCCCCCCCCCCC
(1687890458.403121) can1 200#12CC909005070808
(1687890458.570509) can1 500#454C495448494F4E
(1687890458.577725) can1 501#32434E46322E3335
(1687890458.577766) can0 064#1A
(1687890458.581971) can0 064#33
(1687890458.583310) can1 502#0C04AB2A050042
(1687890458.583604) can0 064#37
(1687890458.586787) can0 064#42
(1687890458.589828) can0 064#44
(1687890458.593417) can1 503#0071281B281B
(1687890458.593457) can0 0C8#1A
(1687890458.594889) can0 0CD#010101010101
(1687890458.597297) can0 0C8#33
(1687890458.597434) can0 0CD#020000231C1C
(1687890458.600560) can0 0C8#37
(1687890458.600676) can0 0CD#0000000000
(1687890458.603377) can1 504#0000000D004F
(1687890458.603678) can0 0C8#42
(1687890458.603793) can0 0CD#00
(1687890458.607753) can0 0C8#44
(1687890458.607869) can0 0CD#01
(1687890458.613259) can1 505#000000D200000083
(1687890458.623312) can1 506#5D001000E60023
(1687890458.633231) can1 507#10000F19120C
(1687890458.643220) can1 508#0091051B0806
(1687890459.367442) can1 680#48FF0C
(1687890459.367610) can1 204#CCCCCCCCFFFFFFFF
(1687890459.373941) can1 1806E5F4#0498008B01000000
(1687890459.374099) can1 203#CCCCCCCCCCCCCCCC
(1687890459.374713) can1 681#00000000010000
(1687890459.383706) can1 680#25FF5D
(1687890459.383910) can1 202#CCCCCCCCCCCCCCCC
(1687890459.393705) can1 680#1EFFE5
(1687890459.393919) can1 201#CCCCCCCCCCCCCCCC
(1687890459.403827) can1 200#13CC8F8F07070808
(1687890459.571190) can1 500#454C495448494F4E
(1687890459.578362) can1 501#32434E46322E3335
(1687890459.583933) can1 502#0C04AC2A050042
(1687890459.594100) can1 503#0071281B281B
(1687890459.604019) can1 504#0000000D004F
(1687890459.613987) can1 505#000000D200000083
(1687890459.624058) can1 506#5D001000E60023
(1687890459.633957) can1 507#10000F19120C
(1687890459.643964) can1 508#0091051B0806
(1687890460.368142) can1 680#48FF0C
(1687890460.368311) can1 204#CCCCCCCCFFFFFFFF
(1687890460.374674) can1 1806E5F4#0498008B01000000
(1687890460.374834) can1 203#CCCCCCCCCCCCCCCC
(1687890460.376284) can1 681#00000000010000
(1687890460.384447) can1 680#25FF5D
(1687890460.384717) can1 202#CCCCCCCCCCCCCCCC
(1687890460.394467) can1 680#1EFFE5
(1687890460.394719) can1 201#CCCCCCCCCCCCCCCC
(1687890460.404580) can1 200#14CC8F8F05070808
(1687890460.571938) can1 500#454C495448494F4E
(1687890460.578621) can0 064#1A
(1687890460.579155) can1 501#32434E46322E3335
(1687890460.582324) can0 064#33
(1687890460.584662) can1 502#0C04AD2A050042
(1687890460.585379) can0 064#37
(1687890460.589771) can0 064#42
(1687890460.594844) can1 503#0071281B281B
(1687890460.594978) can0 064#44
(1687890460.598944) can0 0C8#1A
(1687890460.600500) can0 0CD#000000010101
(1687890460.600627) can0 0C8#33
(1687890460.600746) can0 0CD#020000241C1C
(1687890460.602631) can0 0C8#37
(1687890460.602794) can0 0CD#0000000000
(1687890460.604722) can1 504#0000000D004F
(1687890460.606072) can0 0C8#42
(1687890460.606170) can0 0CD#00
(1687890460.609506) can0 0C8#44
(1687890460.609609) can0 0CD#01
(1687890460.614694) can1 505#000000D200000083
(1687890460.624738) can1 506#5D001000E60023
(1687890460.634648) can1 507#10000F19120C
(1687890460.644642) can1 508#0091051B0806
(1687890461.368835) can1 680#48FF0C
(1687890461.368998) can1 204#CCCCCCCCFFFFFFFF
(1687890461.375361) can1 1806E5F4#0498008B01000000
(1687890461.375575) can1 203#CCCCCCCCCCCCCCCC
(1687890461.377412) can1 681#00000000010000
(1687890461.385146) can1 680#25FF5D
(1687890461.385372) can1 202#CCCCCCCCCCCCCCCC
(1687890461.395186) can1 680#1EFFE5
(1687890461.395351) can1 201#CCCCCCCCCCCCCCCC
(1687890461.405303) can1 200#15CC919105070808
(1687890461.572646) can1 500#454C495448494F4E
(1687890461.579798) can1 501#32434E46322E3335
(1687890461.585350) can1 502#0C04AE2A050042
(1687890461.595540) can1 503#0071281B281B
(1687890461.605454) can1 504#0000000D004F
(1687890461.615423) can1 505#000000D200000083
(1687890461.625494) can1 506#5D001000E60023
(1687890461.635393) can1 507#10000F19120C
(1687890461.645401) can1 508#0091051B0806
(1687890462.369577) can1 680#48FF0C
(1687890462.369756) can1 204#CCCCCCCCFFFFFFFF
(1687890462.376109) can1 1806E5F4#0498008B01000000
(1687890462.376268) can1 203#CCCCCCCCCCCCCCCC
(1687890462.377504) can1 681#00000000010000
(1687890462.385955) can1 680#25FF5D
(1687890462.386138) can1 202#CCCCCCCCCCCCCCCC
(1687890462.395901) can1 680#1EFFE5
(1687890462.396121) can1 201#CCCCCCCCCCCCCCCC
(1687890462.405991) can1 200#16CC909005070808
(1687890462.573401) can1 500#454C495448494F4E
(1687890462.580678) can1 501#32434E46322E3335
(1687890462.580609) can0 064#1A
(1687890462.583659) can0 064#33
(1687890462.586115) can1 502#0C04AF2A050042
(1687890462.588136) can0 064#37
(1687890462.592023) can0 064#42
(1687890462.596299) can1 503#0071281B281B
(1687890462.597183) can0 064#44
(1687890462.600501) can0 0C8#1A
(1687890462.601974) can0 0CD#000000010101
(1687890462.603876) can0 0C8#33
(1687890462.603997) can0 0CD#020000241C1A
(1687890462.606180) can1 504#0000000D004F
(1687890462.608364) can0 0C8#37
(1687890462.608487) can0 0CD#0000000000
(1687890462.611498) can0 0C8#42
(1687890462.611618) can0 0CD#00
(1687890462.615541) can0 0C8#44
(1687890462.615691) can0 0CD#01
(1687890462.616142) can1 505#000000D200000083
(1687890462.626190) can1 506#5D001000E60023
(1687890462.636089) can1 507#10000F19120C
(1687890462.646090) can1 508#0091051B0806
(1687890463.370296) can1 680#48FF0C
(1687890463.370482) can1 204#CCCCCCCCFFFFFFFF
(1687890463.376817) can1 1806E5F4#0498008B01000000
(1687890463.376980) can1 203#CCCCCCCCCCCCCCCC
(1687890463.378077) can1 681#00000000010000
(1687890463.386627) can1 680#25FF5D
(1687890463.386807) can1 202#CCCCCCCCCCCCCCCC
(1687890463.396613) can1 680#1EFFE5
(1687890463.396833) can1 201#CCCCCCCCCCCCCCCC
(1687890463.406724) can1 200#17CC8F8F05070808
(1687890463.574047) can1 500#454C495448494F4E
(1687890463.581217) can1 501#32434E46322E3335
(1687890463.586770) can1 502#0C04B02A050042
(1687890463.596969) can1 503#0071281B281B
(1687890463.606889) can1 504#0000000D004F
(1687890463.616856) can1 505#000000D200000083
(1687890463.626927) can1 506#5D001000E60023
(1687890463.636828) can1 507#10000F19120C
(1687890463.646869) can1 508#0091051B0806
(1687890464.371010) can1 680#48FF0C
(1687890464.371187) can1 204#CCCCCCCCFFFFFFFF
(1687890464.377535) can1 1806E5F4#0498008B01000000
(1687890464.377693) can1 203#CCCCCCCCCCCCCCCC
(1687890464.379159) can1 681#00000000010000
(1687890464.387337) can1 680#25FF5D
(1687890464.387507) can1 202#CCCCCCCCCCCCCCCC
(1687890464.397345) can1 680#1EFFE5
(1687890464.397560) can1 201#CCCCCCCCCCCCCCCC
(1687890464.407454) can1 200#18CC8F8F05070808
(1687890464.574815) can1 500#454C495448494F4E
(1687890464.581925) can0 064#1A
(1687890464.582115) can1 501#32434E46322E3335
(1687890464.585546) can0 064#33
(1687890464.587562) can1 502#0C04B12A050042
(1687890464.590747) can0 064#37
(1687890464.594516) can0 064#42
(1687890464.597092) can0 064#44
(1687890464.597652) can1 503#0071281B281B
(1687890464.600248) can0 0C8#1A
(1687890464.601743) can0 0CD#010100010101
(1687890464.604024) can0 0C8#33
(1687890464.604177) can0 0CD#020000241C1A
(1687890464.605652) can0 0C8#37
(1687890464.605798) can0 0CD#0000000000
(1687890464.607592) can1 504#0000000D004F
(1687890464.607858) can0 0C8#42
(1687890464.607962) can0 0CD#00
(1687890464.612070) can0 0C8#44
(1687890464.612200) can0 0CD#01
(1687890464.617549) can1 505#000000D200000083
(1687890464.627605) can1 506#5D001000E60023
(1687890464.637519) can1 507#10000F19120C
(1687890464.647514) can1 508#0091051B0806
(1687890465.371738) can1 680#48FF0C
(1687890465.371921) can1 204#CCCCCCCCFFFFFFFF
(1687890465.378258) can1 1806E5F4#0498008B01000000
(1687890465.378448) can1 203#CCCCCCCCCCCCCCCC
(1687890465.379253) can1 681#00000000010000
(1687890465.388044) can1 680#25FF5D
(1687890465.388206) can1 202#CCCCCCCCCCCCCCCC
(1687890465.398061) can1 680#1EFFE5
(1687890465.398242) can1 201#CCCCCCCCCCCCCCCC
(1687890465.408175) can1 200#19CC8F8F05070808
(1687890465.575513) can1 500#454C495448494F4E
(1687890465.582708) can1 501#32434E46322E3335
(1687890465.588248) can1 502#0C04B22A050042
(1687890465.598414) can1 503#0071281B281B
(1687890465.608357) can1 504#0000000D004F
(1687890465.618309) can1 505#000000D200000083
(1687890465.628373) can1 506#5D001000E60023
(1687890465.638265) can1 507#10000F19120C
(1687890465.648275) can1 508#0091051B0806
(1687890466.372481) can1 680#48FF0C
(1687890466.372657) can1 204#CCCCCCCCFFFFFFFF
(1687890466.378976) can1 1806E5F4#0498008B01000000
(1687890466.379133) can1 203#CCCCCCCCCCCCCCCC
(1687890466.380834) can1 681#00000000010000
(1687890466.388754) can1 680#25FF5D
(1687890466.389003) can1 202#CCCCCCCCCCCCCCCC
(1687890466.398769) can1 680#1EFFE5
(1687890466.399014) can1 201#CCCCCCCCCCCCCCCC
(1687890466.408881) can1 200#1ACC909005070808
(1687890466.576253) can1 500#454C495448494F4E
(1687890466.582901) can0 064#1A
(1687890466.583450) can1 501#32434E46322E3335
(1687890466.585986) can0 064#33
(1687890466.589010) can1 502#0C04B32A050042
(1687890466.589510) can0 064#37
(1687890466.594880) can0 064#42
(1687890466.598491) can0 064#44
(1687890466.599133) can1 503#0071281B281B
(1687890466.600281) can0 0C8#1A
(1687890466.601815) can0 0CD#011401020104
(1687890466.603917) can0 0C8#33
(1687890466.604096) can0 0CD#020100241C1A
(1687890466.607074) can0 0C8#37
(1687890466.607243) can0 0CD#0642100000
(1687890466.609090) can1 504#0001000D004F
(1687890466.611084) can0 0CD#00
(1687890466.611186) can0 0C8#42
(1687890466.615585) can0 0CD#01
(1687890466.615689) can0 0C8#44
(1687890466.619038) can1 505#000000D200000083
(1687890466.629016) can1 506#5D001000E60023
(1687890466.638936) can1 507#10000F19120C
(1687890466.648947) can1 508#0091051B0806
(1687890467.373070) can1 680#48FF0C
(1687890467.373298) can1 204#CCCCCCCCFFFFFFFF
(1687890467.379610) can1 1806E5F4#0498008B01000000
(1687890467.379804) can1 203#CCCCCCCCCCCCCCCC
(1687890467.380843) can1 681#00000000010000
(1687890467.389399) can1 680#25FF5D
(1687890467.389609) can1 202#CCCCCCCCCCCCCCCC
(1687890467.399420) can1 680#1EFFE5
(1687890467.399630) can1 201#CCCCCCCCCCCCCCCC
(1687890467.409552) can1 200#1BCC909005070808
(1687890467.576855) can1 500#454C495448494F4E
(1687890467.584052) can1 501#32434E46322E3335
(1687890467.589601) can1 502#0C04B42A050042
(1687890467.599795) can1 503#0071281B281B
(1687890467.609703) can1 504#0002000D004F
(1687890467.619701) can1 505#000000D200000083
(1687890467.629743) can1 506#5D001000E60023
(1687890467.639705) can1 507#10000F19120C
(1687890467.649630) can1 508#0091051B0806
(1687890468.373680) can1 680#48FF0C
(1687890468.373894) can1 204#CCCCCCCCFFFFFFFF
(1687890468.380263) can1 1806E5F4#0498008B01000000
(1687890468.380433) can1 203#CCCCCCCCCCCCCCCC
(1687890468.382423) can1 681#00000000010000
(1687890468.390046) can1 680#25FF5D
(1687890468.390214) can1 202#CCCCCCCCCCCCCCCC
(1687890468.400080) can1 680#1EFFE5
(1687890468.400234) can1 201#CCCCCCCCCCCCCCCC
(1687890468.410150) can1 200#00CC919105070808
(1687890468.577454) can1 500#454C495448494F4E
(1687890468.582288) can0 064#1A
(1687890468.584666) can1 501#32434E46322E3335
(1687890468.586510) can0 064#33
(1687890468.586730) can0 064#37
(1687890468.590047) can0 064#42
(1687890468.590150) can1 502#0C04B52A050042
(1687890468.592213) can0 064#44
(1687890468.593934) can0 0C8#1A
(1687890468.595514) can0 0CD#011401020104
(1687890468.596508) can0 0C8#33
(1687890468.596612) can0 0CD#020100241C1A
(1687890468.600342) can1 503#0071281B281B
(1687890468.600814) can0 0C8#37
(1687890468.600934) can0 0CD#00140A0000
(1687890468.602853) can0 0C8#42
(1687890468.602935) can0 0CD#00
(1687890468.607377) can0 0C8#44
(1687890468.607430) can0 0CD#01
(1687890468.610294) can1 504#0002000D004F
(1687890468.620230) can1 505#000000D200000083
(1687890468.630383) can1 506#5D001000E60023
(1687890468.640243) can1 507#10000F19120C
(1687890468.650177) can1 508#0091051B0806
(1687890469.374133) can1 680#48FF0C
(1687890469.374352) can1 204#CCCCCCCCFFFFFFFF
(1687890469.380698) can1 1806E5F4#0498008B01000000
(1687890469.380883) can1 203#CCCCCCCCCCCCCCCC
(1687890469.382134) can1 681#00000000010000
(1687890469.390469) can1 680#25FF5D
(1687890469.390667) can1 202#CCCCCCCCCCCCCCCC
(1687890469.400521) can1 680#1EFFE5
(1687890469.400696) can1 201#CCCCCCCCCCCCCCCC
(1687890469.410620) can1 200#01CC909005070808
(1687890469.577903) can1 500#454C495448494F4E
(1687890469.585068) can1 501#32434E46322E3335
(1687890469.590741) can1 502#0C04B62A050042
(1687890469.600811) can1 503#0071281B281B
(1687890469.610797) can1 504#0002000D004F
(1687890469.620680) can1 505#000000D200000083
(1687890469.630743) can1 506#5D001000E60023
(1687890469.640637) can1 507#10000F19120C
(1687890469.650658) can1 508#0091051B0806
(1687890470.374602) can1 680#48FF0C
(1687890470.374828) can1 204#CCCCCCCCFFFFFFFF
(1687890470.381153) can1 1806E5F4#0498008B01000000
(1687890470.381347) can1 203#CCCCCCCCCCCCCCCC
(1687890470.382987) can1 681#00000000010000
(1687890470.390943) can1 680#25FF5D
(1687890470.391140) can1 202#CCCCCCCCCCCCCCCC
(1687890470.400990) can1 680#1EFFE5
(1687890470.401161) can1 201#CCCCCCCCCCCCCCCC
(1687890470.411068) can1 200#02CC909005070808
(1687890470.578347) can1 500#454C495448494F4E
(1687890470.584182) can0 064#1A
(1687890470.585587) can1 501#32434E46322E3335
(1687890470.586191) can0 064#33
(1687890470.587999) can0 064#37
(1687890470.588203) can0 064#42
(1687890470.590743) can0 064#44
(1687890470.591093) can1 502#0C04B72A050042
(1687890470.592345) can0 0C8#1A
(1687890470.593835) can0 0CD#110101010406
(1687890470.594305) can0 0C8#33
(1687890470.594428) can0 0CD#020100241C1C
(1687890470.595805) can0 0C8#37
(1687890470.595964) can0 0CD#001A1E0000
(1687890470.597558) can0 0C8#42
(1687890470.597674) can0 0CD#00
(1687890470.600499) can0 0C8#44
(1687890470.600580) can0 0CD#01
(1687890470.601263) can1 503#0071281B281B
(1687890470.611182) can1 504#0002000D004F
(1687890470.621147) can1 505#000000D200000083
(1687890470.631212) can1 506#5D001000E60023
(1687890470.641100) can1 507#10000F19120C
(1687890470.651163) can1 508#0091051B0806
(1687890471.375166) can1 680#48FF0C
(1687890471.375310) can1 204#CCCCCCCCFFFFFFFF
(1687890471.381665) can1 1806E5F4#0498008B01000000
(1687890471.381846) can1 203#CCCCCCCCCCCCCCCC
(1687890471.383453) can1 681#00000000010000
(1687890471.391474) can1 680#25FF5D
(1687890471.391646) can1 202#CCCCCCCCCCCCCCCC
(1687890471.401480) can1 680#1EFFE5
(1687890471.401640) can1 201#CCCCCCCCCCCCCCCC
(1687890471.411587) can1 200#03CC909005070808
(1687890471.578943) can1 500#454C495448494F4E
(1687890471.586054) can1 501#32434E46322E3335
(1687890471.591618) can1 502#0C04B82A050042
(1687890471.601776) can1 503#0071281B281B
(1687890471.611789) can1 504#0002000D004F
(1687890471.621663) can1 505#000000D200000083
(1687890471.631734) can1 506#5D001000E60023
(1687890471.641598) can1 507#10000F19120C
(1687890471.651644) can1 508#0091051B0806
(1687890472.375624) can1 680#48FF0C
(1687890472.375814) can1 204#CCCCCCCCFFFFFFFF
(1687890472.382168) can1 1806E5F4#0498008B01000000
(1687890472.382342) can1 203#CCCCCCCCCCCCCCCC
(1687890472.384228) can1 681#00000000010000
(1687890472.391946) can1 680#25FF5D
(1687890472.392137) can1 202#CCCCCCCCCCCCCCCC
(1687890472.401986) can1 680#1EFFE5
(1687890472.402147) can1 201#CCCCCCCCCCCCCCCC
(1687890472.412172) can1 200#04CC8F8F05070808
(1687890472.579357) can1 500#454C495448494F4E
(1687890472.583409) can0 064#33
(1687890472.584755) can0 064#1A
(1687890472.584968) can0 064#37
(1687890472.586639) can1 501#32434E46322E3335
(1687890472.589947) can0 064#44
(1687890472.592103) can1 502#0C04B92A050042
(1687890472.592302) can0 064#42
(1687890472.595542) can0 0C8#1A
(1687890472.596970) can0 0CD#130101010205
(1687890472.597039) can0 0C8#33
(1687890472.597160) can0 0CD#030100241C1A
(1687890472.601165) can0 0C8#37
(1687890472.601301) can0 0CD#0A2C090000
(1687890472.602120) can0 0C8#42
(1687890472.602171) can0 0CD#00
(1687890472.602240) can1 503#0071281B281B
(1687890472.607035) can0 0C8#44
(1687890472.607087) can0 0CD#01
(1687890472.612324) can1 504#0002000D004F
(1687890472.622178) can1 505#000000D200000083
(1687890472.632318) can1 506#5D001000E60023
(1687890472.642216) can1 507#10000F19120C
(1687890472.652185) can1 508#0091051B0806
(1687890473.376130) can1 680#48FF0C
(1687890473.376316) can1 204#CCCCCCCCFFFFFFFF
(1687890473.382652) can1 1806E5F4#0498008B01000000
(1687890473.382850) can1 203#CCCCCCCCCCCCCCCC
(1687890473.384120) can1 681#00000000010000
(1687890473.392452) can1 680#25FF5D
(1687890473.392659) can1 202#CCCCCCCCCCCCCCCC
(1687890473.402501) can1 680#1EFFE5
(1687890473.402664) can1 201#CCCCCCCCCCCCCCCC
(1687890473.412616) can1 200#05CC919105070808
(1687890473.579895) can1 500#454C495448494F4E
(1687890473.587165) can1 501#32434E46322E3335
(1687890473.592651) can1 502#0C04BA2A050042
(1687890473.602940) can1 503#0071281B281B
(1687890473.612722) can1 504#0003000D004F
(1687890473.622676) can1 505#000000D200000083
(1687890473.632769) can1 506#5D001000E60023
(1687890473.642650) can1 507#10000F19120C
(1687890473.652627) can1 508#0091051B0806
(1687890474.376652) can1 680#48FF0C
(1687890474.376850) can1 204#CCCCCCCCFFFFFFFF
(1687890474.383262) can1 1806E5F4#0498008B01000000
(1687890474.383396) can1 203#CCCCCCCCCCCCCCCC
(1687890474.384488) can1 681#00000000010000
(1687890474.392969) can1 680#25FF5D
(1687890474.393180) can1 202#CCCCCCCCCCCCCCCC
(1687890474.403082) can1 680#1EFFE5
(1687890474.403196) can1 201#CCCCCCCCCCCCCCCC
(1687890474.413120) can1 200#06CC909008070808
(1687890474.580458) can1 500#454C495448494F4E
(1687890474.585449) can0 064#33
(1687890474.586430) can0 064#1A
(1687890474.587620) can1 501#32434E46322E3335
(1687890474.588072) can0 064#37
(1687890474.589710) can0 064#42
(1687890474.591631) can0 064#44
(1687890474.593138) can1 502#0C04BB2A050042
(1687890474.595362) can0 0C8#1A
(1687890474.596859) can0 0CD#000015050401
(1687890474.598448) can0 0C8#33
(1687890474.598561) can0 0CD#040100241C1A
(1687890474.599229) can0 0C8#37
(1687890474.599358) can0 0CD#0031310000
(1687890474.603347) can1 503#0071281B281B
(1687890474.604489) can0 0C8#42
(1687890474.604610) can0 0CD#00
(1687890474.610242) can0 0C8#44
(1687890474.610297) can0 0CD#01
(1687890474.613264) can1 504#0004000D004F
(1687890474.623204) can1 505#000000D200000083
(1687890474.633296) can1 506#5D001000E60023
(1687890474.643189) can1 507#10000F19120C
(1687890474.653182) can1 508#0091051B0806
(1687890475.377187) can1 680#48FF0C
(1687890475.377387) can1 204#CCCCCCCCFFFFFFFF
(1687890475.383720) can1 1806E5F4#0498008B01000000
(1687890475.383963) can1 203#CCCCCCCCCCCCCCCC
(1687890475.385408) can1 681#00000000010000
(1687890475.393510) can1 680#25FF5D
(1687890475.393743) can1 202#CCCCCCCCCCCCCCCC
(1687890475.403567) can1 680#1EFFE5
(1687890475.403722) can1 201#CCCCCCCCCCCCCCCC
(1687890475.413642) can1 200#07CC909005070808
(1687890475.581010) can1 500#454C495448494F4E
(1687890475.588124) can1 501#32434E46322E3335
(1687890475.593701) can1 502#0C04BC2A050042
(1687890475.603845) can1 503#0071281B281B
(1687890475.613758) can1 504#0006000D004F
(1687890475.623754) can1 505#000000D200000083
(1687890475.633793) can1 506#5D001000E60023
(1687890475.643700) can1 507#10000F19120C
(1687890475.653705) can1 508#0091051B0806
(1687890476.377902) can1 680#48FF0C
(1687890476.378100) can1 204#CCCCCCCCFFFFFFFF
(1687890476.384328) can1 1806E5F4#0498008B01000000
(1687890476.384469) can1 203#CCCCCCCCCCCCCCCC
(1687890476.385326) can1 681#00000000010000
(1687890476.394076) can1 680#25FF5D
(1687890476.394261) can1 202#CCCCCCCCCCCCCCCC
(1687890476.404117) can1 680#1EFFE5
(1687890476.404278) can1 201#CCCCCCCCCCCCCCCC
(1687890476.414333) can1 200#08CC919105070808
(1687890476.581530) can1 500#454C495448494F4E
(1687890476.587044) can0 064#1A
(1687890476.588715) can1 501#32434E46322E3335
(1687890476.589634) can0 064#33
(1687890476.594280) can1 502#0C04BD2A050042
(1687890476.595607) can0 064#37
(1687890476.598280) can0 064#42
(1687890476.604406) can1 503#0071281B281B
(1687890476.604871) can0 064#44
(1687890476.606915) can0 0C8#1A
(1687890476.608449) can0 0CD#001B01080104
(1687890476.608507) can0 0C8#33
(1687890476.608679) can0 0CD#050100241E1A
(1687890476.609587) can0 0C8#37
(1687890476.609749) can0 0CD#004F380000
(1687890476.613538) can0 0C8#42
(1687890476.613590) can0 0CD#00
(1687890476.613788) can0 0C8#44
(1687890476.613865) can0 0CD#01
(1687890476.614329) can1 504#0007000D004F
(1687890476.624290) can1 505#000000D200000083
(1687890476.634336) can1 506#5D001000E60023
(1687890476.644231) can1 507#10000F19120C
(1687890476.654274) can1 508#0091051B0806
(1687890477.378477) can1 680#48FF0C
(1687890477.378671) can1 204#CCCCCCCCFFFFFFFF
(1687890477.384871) can1 1806E5F4#0498008B01000000
(1687890477.385035) can1 203#CCCCCCCCCCCCCCCC
(1687890477.386752) can1 681#00000000010000
(1687890477.394634) can1 680#25FF5D
(1687890477.394826) can1 202#CCCCCCCCCCCCCCCC
(1687890477.404641) can1 680#1EFFE5
(1687890477.404855) can1 201#CCCCCCCCCCCCCCCC
(1687890477.414765) can1 200#09CC919105070808
(1687890477.582048) can1 500#454C495448494F4E
(1687890477.589238) can1 501#32434E46322E3335
(1687890477.594795) can1 502#0C04BE2A050042
(1687890477.604961) can1 503#0071281B281B
(1687890477.614871) can1 504#0009000D004F
(1687890477.624847) can1 505#000000D200000083
(1687890477.634915) can1 506#5D001000E60023
(1687890477.644855) can1 507#10000F19120C
(1687890477.654841) can1 508#0091051B0806
(1687890478.379043) can1 680#48FF0C
(1687890478.379231) can1 204#CCCCCCCCFFFFFFFF
(1687890478.385440) can1 1806E5F4#0498008B01000000
(1687890478.385624) can1 203#CCCCCCCCCCCCCCCC
(1687890478.387766) can1 681#00000000010000
(1687890478.395247) can1 680#25FF5D
(1687890478.395402) can1 202#CCCCCCCCCCCCCCCC
(1687890478.405242) can1 680#1EFFE5
(1687890478.405411) can1 201#CCCCCCCCCCCCCCCC
(1687890478.415362) can1 200#0ACC919105070808
(1687890478.582648) can1 500#454C495448494F4E
(1687890478.585540) can0 064#1A
(1687890478.586331) can0 064#33
(1687890478.589164) can0 064#37
(1687890478.589908) can1 501#32434E46322E3335
(1687890478.593637) can0 064#42
(1687890478.595403) can1 502#0C04BF2A050042
(1687890478.597532) can0 064#44
(1687890478.605672) can1 503#0071281B281B
(1687890478.610816) can0 0C8#1A
(1687890478.611731) can0 0C8#33
(1687890478.612327) can0 0CD#0016010B0101
(1687890478.612392) can0 0CD#060100241E1A
(1687890478.612557) can0 0C8#37
(1687890478.612729) can0 0CD#0079340000
(1687890478.615452) can1 504#000B000D004F
(1687890478.615893) can0 0C8#42
(1687890478.615955) can0 0CD#00
(1687890478.617358) can0 0C8#44
(1687890478.617409) can0 0CD#01
(1687890478.625446) can1 505#000000D200000083
(1687890478.635574) can1 506#5D001000E60023
(1687890478.645404) can1 507#10000F19120C
(1687890478.655417) can1 508#0091051B0806
(1687890479.379641) can1 680#48FF0C
(1687890479.379849) can1 204#CCCCCCCCFFFFFFFF
(1687890479.385983) can1 1806E5F4#0498008B01000000
(1687890479.386178) can1 203#CCCCCCCCCCCCCCCC
(1687890479.387656) can1 681#00000000010000
(1687890479.395772) can1 680#25FF5D
(1687890479.395976) can1 202#CCCCCCCCCCCCCCCC
(1687890479.405796) can1 680#1EFFE5
(1687890479.405987) can1 201#CCCCCCCCCCCCCCCC
(1687890479.415969) can1 200#0BCC909005070808
(1687890479.583224) can1 500#454C495448494F4E
(1687890479.590403) can1 501#32434E46322E3335
(1687890479.596018) can1 502#0C04C02A050042
(1687890479.606160) can1 503#0071281B281B
(1687890479.616045) can1 504#000C000D004F
(1687890479.626023) can1 505#000000D200000083
(1687890479.636109) can1 506#5D001000E60023
(1687890479.645966) can1 507#10000F19120C
(1687890479.656000) can1 508#0091051B0806
(1687890480.380202) can1 680#48FF0C
(1687890480.380397) can1 204#CCCCCCCCFFFFFFFF
(1687890480.386584) can1 1806E5F4#0498008B01000000
(1687890480.386793) can1 203#CCCCCCCCCCCCCCCC
(1687890480.388098) can1 681#00000000010000
(1687890480.396376) can1 680#25FF5D
(1687890480.396572) can1 202#CCCCCCCCCCCCCCCC
(1687890480.406406) can1 680#1EFFE5
(1687890480.406590) can1 201#CCCCCCCCCCCCCCCC
(1687890480.416536) can1 200#0CCC929205070808
(1687890480.583890) can1 500#454C495448494F4E
(1687890480.591022) can1 501#32434E46322E3335
(1687890480.591949) can0 064#1A
(1687890480.592446) can0 064#33
(1687890480.594550) can0 064#37
(1687890480.596545) can1 502#0C04C12A050042
(1687890480.596579) can0 064#42
(1687890480.599106) can0 064#44
(1687890480.605496) can0 0C8#1A
(1687890480.606710) can1 503#0071281B281B
(1687890480.607014) can0 0CD#13150104010C
(1687890480.607572) can0 0C8#33
(1687890480.607691) can0 0CD#080100241E1C
(1687890480.607854) can0 0C8#37
(1687890480.607964) can0 0CD#00A6380000
(1687890480.610743) can0 0C8#42
(1687890480.610795) can0 0CD#00
(1687890480.611005) can0 0C8#44
(1687890480.611109) can0 0CD#01
(1687890480.616615) can1 504#000D000D004F
(1687890480.626654) can1 505#000000D200000083
(1687890480.636811) can1 506#5D001000E60023
(1687890480.646555) can1 507#10000F19120C
(1687890480.656579) can1 508#0091051B0806
(1687890481.380831) can1 680#48FF0C
(1687890481.381000) can1 204#CCCCCCCCFFFFFFFF
(1687890481.387189) can1 1806E5F4#0498008B01000000
(1687890481.387414) can1 203#CCCCCCCCCCCCCCCC
(1687890481.389097) can1 681#00000000010000
(1687890481.396974) can1 680#25FF5D
(1687890481.397153) can1 202#CCCCCCCCCCCCCCCC
(1687890481.406967) can1 680#1EFFE5
(1687890481.407173) can1 201#CCCCCCCCCCCCCCCC
(1687890481.417088) can1 200#0DCC919105070808
(1687890481.584386) can1 500#454C495448494F4E
(1687890481.591621) can1 501#32434E46322E3335
(1687890481.597151) can1 502#0C04C22A050042
(1687890481.607379) can1 503#0071281B281B
(1687890481.617233) can1 504#000E000D004F
(1687890481.627217) can1 505#000000D200000083
(1687890481.637255) can1 506#5D001000E60023
(1687890481.647194) can1 507#10000F19120C
(1687890481.657149) can1 508#0091051B0806
(1687890482.381418) can1 680#48FF0C
(1687890482.381646) can1 204#CCCCCCCCFFFFFFFF
(1687890482.387780) can1 1806E5F4#0498008B01000000
(1687890482.387966) can1 203#CCCCCCCCCCCCCCCC
(1687890482.389076) can1 681#00000000010000
(1687890482.397558) can1 680#25FF5D
(1687890482.397775) can1 202#CCCCCCCCCCCCCCCC
(1687890482.407599) can1 680#1EFFE5
(1687890482.407781) can1 201#CCC9CCCCCCCCCCCC
(1687890482.417692) can1 200#0ECC8F8F05070808
(1687890482.585030) can1 500#454C495448494F4E
(1687890482.588793) can0 064#1A
(1687890482.590089) can0 064#33
(1687890482.592233) can1 501#32434E46322E3335
(1687890482.594318) can0 064#37
(1687890482.597799) can1 502#0C04C32A050042
(1687890482.599083) can0 064#42
(1687890482.599382) can0 064#44
(1687890482.602605) can0 0C8#1A
(1687890482.604108) can0 0CD#200101010913
(1687890482.605367) can0 0C8#33
(1687890482.605506) can0 0CD#0E0100241E1C
(1687890482.606215) can0 0C8#37
(1687890482.606331) can0 0CD#00FD4A0000
(1687890482.607165) can0 0C8#42
(1687890482.607216) can0 0CD#00
(1687890482.607904) can1 503#0071281B281B
(1687890482.611111) can0 0C8#44
(1687890482.611220) can0 0CD#01
(1687890482.617862) can1 504#0016000D004F
(1687890482.627785) can1 505#000000D200000083
(1687890482.637850) can1 506#5D001000E60023
(1687890482.647748) can1 507#10000F19120C
(1687890482.657758) can1 508#0091051B0806
(1687890483.382012) can1 680#48FF0C
(1687890483.382213) can1 204#CCCCCCCCFFFFFFFF
(1687890483.388378) can1 1806E5F4#0498008B01000000
(1687890483.388585) can1 203#CCCCC9C9CCCCCCCC
(1687890483.390513) can1 681#00000000010000
(1687890483.398161) can1 680#25FF5D
(1687890483.398380) can1 202#CCCCCCCCCCCCCCCC
(1687890483.408196) can1 680#1EFFE5
(1687890483.408390) can1 201#CCC9CCCCCCCCCCCC
(1687890483.418296) can1 200#0FCC8F8F05070808
(1687890483.585617) can1 500#454C495448494F4E
(1687890483.592794) can1 501#32434E46322E3335
(1687890483.598364) can1 502#0C04C42A050042
(1687890483.608510) can1 503#00712813281B
(1687890483.618430) can1 504#001D000D004F
(1687890483.628403) can1 505#000000D200000083
(1687890483.638464) can1 506#5D001000E60023
(1687890483.648357) can1 507#10000F19120C
(1687890483.658377) can1 508#0091051B0806
(1687890484.382647) can1 680#48FF0C
(1687890484.382846) can1 204#CCCCCCCCFFFFFFFF
(1687890484.389001) can1 1806E5F4#0498008B01000000
(1687890484.389201) can1 203#CCCCC9C6CCCCCCCC
(1687890484.390524) can1 681#00000000010000
(1687890484.398829) can1 680#25FF5D
(1687890484.398999) can1 202#CCCCCCCCCCCCCCCC
(1687890484.408835) can1 680#1EFFE5
(1687890484.409011) can1 201#CCC6CCCCCCCCCCCC
(1687890484.419024) can1 200#10CC909005070808
(1687890484.586250) can1 500#454C495448494F4E
(1687890484.590680) can0 064#1A
(1687890484.593490) can1 501#32434E46322E3335
(1687890484.599001) can1 502#0C04C52A050042
(1687890484.599646) can0 064#33
(1687890484.606575) can0 064#42
(1687890484.606797) can0 064#44
(1687890484.607211) can0 064#37
(1687890484.609138) can1 503#00712813281B
(1687890484.612671) can0 0C8#1A
(1687890484.613980) can0 0C8#33
(1687890484.614169) can0 0CD#390101011915
(1687890484.614265) can0 0CD#130100241E1C
(1687890484.616351) can0 0C8#37
(1687890484.616539) can0 0CD#0151460000
(1687890484.618291) can0 0C8#42
(1687890484.618374) can0 0CD#00
(1687890484.619049) can1 504#0020000D004F
(1687890484.625807) can0 0C8#44
(1687890484.625899) can0 0CD#01
(1687890484.629063) can1 505#000000D200000083
(1687890484.639104) can1 506#5D001000E60023
(1687890484.649037) can1 507#10000F19120C
(1687890484.659028) can1 508#0091051B0806
(1687890485.383254) can1 680#48FF0C
(1687890485.383459) can1 204#CCCCCCCCFFFFFFFF
(1687890485.389689) can1 1806E5F4#0498008B01000000
(1687890485.389837) can1 203#CCCCC6C6CCCCCCCC
(1687890485.390514) can1 681#00000000010000
(1687890485.399495) can1 680#25FF5D
(1687890485.399637) can1 202#CCCCCCCCCCCCCCCC
(1687890485.409439) can1 680#1EFFE5
(1687890485.409624) can1 201#CCC6CCCCCCCCCCCC
(1687890485.419557) can1 200#11CC909005070808
(1687890485.586867) can1 500#454C495448494F4E
(1687890485.594050) can1 501#32434E46322E3335
(1687890485.599605) can1 502#0C04C62A050042
(1687890485.609765) can1 503#00702713281B
(1687890485.619758) can1 504#0028000D004F
(1687890485.629656) can1 505#000000D200000083
(1687890485.639738) can1 506#5D001000E60023
(1687890485.649749) can1 507#10000F19120C
(1687890485.659760) can1 508#0091051B0806
(1687890486.383889) can1 680#48FF0C
(1687890486.384091) can1 204#C9C9C9C9FFFFFFFF
(1687890486.390288) can1 1806E5F4#0498008B01000000
(1687890486.390497) can1 203#CCCCC6C6C6CCCCCC
(1687890486.391991) can1 681#00000000010000
(1687890486.400045) can1 680#25FF5D
(1687890486.400248) can1 202#CCCCCCC9CCCCCCC9
(1687890486.410104) can1 680#1EFFE5
(1687890486.410267) can1 201#CCC6CCCCCCCCCCCC
(1687890486.420330) can1 200#12C6909005070808
(1687890486.587514) can1 500#454C495448494F4E
(1687890486.594846) can1 501#32434E46322E3335
(1687890486.597417) can0 064#33
(1687890486.599147) can0 064#1A
(1687890486.600254) can1 502#0C04C72A050042
(1687890486.602416) can0 064#37
(1687890486.603920) can0 064#42
(1687890486.605894) can0 064#44
(1687890486.609337) can0 0C8#1A
(1687890486.610413) can1 503#00702713281B
(1687890486.610850) can0 0CD#290109012313
(1687890486.611593) can0 0C8#33
(1687890486.611738) can0 0CD#170100241E1C
(1687890486.613388) can0 0C8#37
(1687890486.613516) can0 0CD#01C24C0000
(1687890486.616554) can0 0CD#00
(1687890486.616642) can0 0C8#42
(1687890486.620319) can1 504#002C000D004F
(1687890486.623312) can0 0C8#44
(1687890486.623363) can0 0CD#01
(1687890486.630420) can1 505#000000D200000083
(1687890486.640371) can1 506#5D001000E60023
(1687890486.650258) can1 507#10000F19120C
(1687890486.660275) can1 508#0091051B0806
(1687890487.384542) can1 680#48FF0C
(1687890487.384737) can1 204#C9C9C9C9FFFFFFFF
(1687890487.390934) can1 1806E5F4#0498008B01000000
(1687890487.391088) can1 203#C9CCC6C6C9CCCCC9
(1687890487.393034) can1 681#00000000010000
(1687890487.400692) can1 680#25FF5D
(1687890487.400878) can1 202#CCCCCCC9CCCCCCC9
(1687890487.410732) can1 680#1EFFE5
(1687890487.410928) can1 201#CCC6CCCCC9CCCCCC
(1687890487.420836) can1 200#13C68F8F07070808
(1687890487.588125) can1 500#454C495448494F4E
(1687890487.595327) can1 501#32434E46322E3335
(1687890487.600863) can1 502#0C04C82A050042
(1687890487.611023) can1 503#007027132816
(1687890487.620940) can1 504#0039000D004F
(1687890487.630936) can1 505#000000D200000083
(1687890487.640998) can1 506#5D001000E60023
(1687890487.650891) can1 507#10000F19120C
(1687890487.660882) can1 508#0091051B0806
(1687890488.385158) can1 680#48FF0C
(1687890488.385360) can1 204#C6C6C6C6FFFFFFFF
(1687890488.391547) can1 1806E5F4#0498008B01000000
(1687890488.391727) can1 203#C6C6C6C6C6CCC6C6
(1687890488.393113) can1 681#00000000010000
(1687890488.401335) can1 680#25FF5D
(1687890488.401515) can1 202#CCC6C9C6C6C9C9C6
(1687890488.411347) can1 680#1EFFE5
(1687890488.411545) can1 201#CCC6C9C9C6CCCCCC
(1687890488.421496) can1 200#14C68F8F05070808
(1687890488.588772) can1 500#454C495448494F4E
(1687890488.596172) can1 501#32434E46322E3335
(1687890488.601603) can1 502#0C04C92A050042
(1687890488.611698) can1 503#007027132816
(1687890488.617082) can0 064#1A
(1687890488.620950) can0 064#33
(1687890488.621682) can1 504#003D000D004F
(1687890488.626431) can0 064#37
(1687890488.631639) can1 505#000000D200000083
(1687890488.639636) can0 064#42
(1687890488.641701) can1 506#5D001000E60023
(1687890488.648345) can0 064#44
(1687890488.651542) can1 507#10000F19120C
(1687890488.655860) can0 0C8#1A
(1687890488.657420) can0 0CD#01012F192A01
(1687890488.659568) can0 0C8#33
(1687890488.659724) can0 0CD#1D0100241F1C
(1687890488.661544) can1 508#0091051B0806
(1687890488.676585) can0 0C8#37
(1687890488.676711) can0 0CD#0228480000
(1687890488.678839) can0 0C8#42
(1687890488.678963) can0 0CD#00
(1687890488.681024) can0 0C8#44
(1687890488.681134) can0 0CD#01
(1687890489.386678) can1 680#48FF0C
(1687890489.386905) can1 204#C6C6C6C6FFFFFFFF
(1687890489.393093) can1 1806E5F4#0498008B01000000
(1687890489.393285) can1 203#C6C6C6C6C6CCC6C6
(1687890489.394460) can1 681#00000000010000
(1687890489.402891) can1 680#25FF5D
(1687890489.403095) can1 202#CCC6C9C6C6C9C9C6
(1687890489.412932) can1 680#1EFFE5
(1687890489.413134) can1 201#CCC6C9C9C6CCCCCC
(1687890489.423101) can1 200#15CC919105070808
(1687890489.590974) can1 500#454C495448494F4E
(1687890489.598059) can1 501#32434E46322E3335
(1687890489.603561) can1 502#0C04CA2A050042
(1687890489.613739) can1 503#006F271B2815
(1687890489.623716) can1 504#003A000D004F
(1687890489.633802) can1 505#000000D200000083
(1687890489.643762) can1 506#5D001000E60023
(1687890489.653756) can1 507#10000F19120C
(1687890489.663819) can1 508#0091051B0806
(1687890490.389688) can1 680#48FF0C
(1687890490.389850) can1 204#C6C6C6C6FFFFFFFF
(1687890490.396079) can1 1806E5F4#0498008B01000000
(1687890490.396243) can1 203#C6C6C6C6C6CCC9C6
(1687890490.397806) can1 681#00000000010000
(1687890490.405896) can1 680#25FF5D
(1687890490.406057) can1 202#CCC6C9C6C9CCC9C6
(1687890490.415910) can1 680#1EFFE5
(1687890490.416087) can1 201#CCC6C9C9C6CCCCCC
(1687890490.426034) can1 200#16C9909005070808
(1687890490.593728) can1 500#454C495448494F4E
(1687890490.595765) can0 064#1A
(1687890490.598826) can0 064#33
(1687890490.600978) can1 501#32434E46322E3335
(1687890490.603515) can0 064#37
(1687890490.604410) can0 064#42
(1687890490.606526) can1 502#0C04CB2A050042
(1687890490.608974) can0 064#44
(1687890490.610710) can0 0C8#1A
(1687890490.612250) can0 0CD#0001371D3401
(1687890490.613161) can0 0C8#33
(1687890490.613283) can0 0CD#1E0100241F1C
(1687890490.614982) can0 0C8#37
(1687890490.615108) can0 0CD#02703A0000
(1687890490.615803) can0 0C8#42
(1687890490.615883) can0 0CD#00
(1687890490.616660) can1 503#006F271B2815
(1687890490.618529) can0 0C8#44
(1687890490.618598) can0 0CD#01
(1687890490.626756) can1 504#0038000D004F
(1687890490.636607) can1 505#000000D200000083
(1687890490.646701) can1 506#5D001000E60023
(1687890490.656613) can1 507#10000F19120C
(1687890490.666652) can1 508#0091051B0806
(1687890491.392520) can1 680#48FF0C
(1687890491.392690) can1 204#C6C6C6C6FFFFFFFF
(1687890491.398880) can1 1806E5F4#0498008B01000000
(1687890491.399051) can1 203#C6C6C6C6C6CCC9C6
(1687890491.400001) can1 681#00000000010000
(1687890491.408782) can1 680#25FF5D
(1687890491.408867) can1 202#CCC9C9C6C9CCCCC6
(1687890491.418731) can1 680#1EFFE5
(1687890491.418904) can1 201#CCC6CCC9C9CCCCCC
(1687890491.428830) can1 200#17C68F8F05070808
(1687890491.596500) can1 500#454C495448494F4E
(1687890491.603709) can1 501#32434E46322E3335
(1687890491.609272) can1 502#0C04CC2A050042
(1687890491.619485) can1 503#0070271B2815
(1687890491.629388) can1 504#0037000D004F
(1687890491.639418) can1 505#000000D200000083
(1687890491.649479) can1 506#5D001000E60023
(1687890491.659453) can1 507#10000F19120C
(1687890491.669461) can1 508#0091051B0806
(1687890492.395304) can1 680#48FF0C
(1687890492.395423) can1 204#C6C6C6C6FFFFFFFF
(1687890492.401586) can1 1806E5F4#0498008B01000000
(1687890492.401744) can1 203#C6C6C6C6C6CCC6C6
(1687890492.403559) can1 681#00000000010000
(1687890492.411386) can1 680#25FF5D
(1687890492.411550) can1 202#CCC6C6C6C6C9C9C6
(1687890492.421399) can1 680#1EFFE5
(1687890492.421592) can1 201#CCC6C9C9C6CCCCCC
(1687890492.431558) can1 200#18C68F8F05070808
(1687890492.599212) can1 500#454C495448494F4E
(1687890492.601973) can0 064#1A
(1687890492.604336) can0 064#33
(1687890492.605114) can0 064#37
(1687890492.606401) can1 501#32434E46322E3335
(1687890492.606952) can0 064#42
(1687890492.609047) can0 064#44
(1687890492.610668) can0 0C8#1A
(1687890492.611949) can1 502#0C04CD2A050042
(1687890492.612161) can0 0CD#2F1C01010336
(1687890492.613802) can0 0C8#33
(1687890492.613956) can0 0CD#210100241F1C
(1687890492.617034) can0 0C8#37
(1687890492.617204) can0 0CD#02A53D0000
(1687890492.621031) can0 0C8#42
(1687890492.621094) can0 0CD#00
(1687890492.622147) can1 503#0070271B2815
(1687890492.623232) can0 0C8#44
(1687890492.623285) can0 0CD#01
(1687890492.632116) can1 504#003A000D004F
(1687890492.642079) can1 505#000000D200000083
(1687890492.652164) can1 506#5D001000E60023
(1687890492.662068) can1 507#10000F19120C
(1687890492.672078) can1 508#0091051B0806
(1687890493.397707) can1 680#48FF0C
(1687890493.397914) can1 204#C6C6C6C6FFFFFFFF
(1687890493.404117) can1 1806E5F4#0498008B01000000
(1687890493.404304) can1 203#C6C6C6C6C6C9C6C6
(1687890493.405501) can1 681#00000000010000
(1687890493.413916) can1 680#25FF5D
(1687890493.414106) can1 202#CCC6C6C6C6C9C9C6
(1687890493.423957) can1 680#1EFFE5
(1687890493.424142) can1 201#C9C6C9C6C6CCCCCC
(1687890493.434176) can1 200#19C68F8F05070808
(1687890493.601726) can1 500#454C495448494F4E
(1687890493.609102) can1 501#32434E46322E3335
(1687890493.614542) can1 502#0C04CE2A050042
(1687890493.624648) can1 503#006F271B2808
(1687890493.634708) can1 504#003B000D004F
(1687890493.644580) can1 505#000000D200000083
(1687890493.654676) can1 506#5D001000E60023
(1687890493.664647) can1 507#10000F19120C
(1687890493.674630) can1 508#0091051B0806
(1687890494.400207) can1 680#48FF0C
(1687890494.400374) can1 204#C6C6C6C6FFFFFFFF
(1687890494.406586) can1 1806E5F4#0498008B01000000
(1687890494.406742) can1 203#C6C6C6C6C6CCC6C6
(1687890494.408788) can1 681#00000000010000
(1687890494.416413) can1 680#25FF5D
(1687890494.416557) can1 202#CCC6C9C6C6C9C9C6
(1687890494.426497) can1 680#1EFFE5
(1687890494.426587) can1 201#CCC6C6C9C6CCCCCC
(1687890494.604273) can1 500#454C495448494F4E
(1687890494.611383) can1 501#32434E46322E3335
(1687890494.612520) can0 064#1A
(1687890494.616983) can1 502#0C04CF2A050042
(1687890494.618062) can0 064#37
(1687890494.618911) can0 064#33
(1687890494.624864) can0 064#42
(1687890494.625928) can0 064#44
(1687890494.627094) can1 503#006F271B2808
(1687890494.631166) can0 0C8#1A
(1687890494.632597) can0 0CD#0C300133013B
(1687890494.637079) can1 504#0038000D004F
(1687890494.637342) can0 0C8#33
(1687890494.637470) can0 0CD#220100231F1C
(1687890494.638280) can0 0C8#37
(1687890494.638458) can0 0CD#02E8360000
(1687890494.643859) can0 0CD#00
(1687890494.643905) can0 0C8#42
(1687890494.644924) can0 0C8#44
(1687890494.645052) can0 0CD#01
(1687890494.647011) can1 505#000000D200000083
(1687890494.657111) can1 506#5D001000E60023
(1687890494.667036) can1 507#10000F19120C
(1687890494.677068) can1 508#0091051B0806
(1687890495.402530) can1 680#48FF0C
(1687890495.402702) can1 204#C6C6C6C6FFFFFFFF
(1687890495.408942) can1 1806E5F4#0498008B01000000
(1687890495.409112) can1 203#C6C6C6C6C6C9C6C6
(1687890495.410495) can1 681#00000000010000
(1687890495.418727) can1 680#25FF5D
(1687890495.418927) can1 202#CCC6C6C6C6C9C9C6
(1687890495.428758) can1 680#1EFFE5
(1687890495.428935) can1 201#CCC6C6C9C6CCCCCC
(1687890495.438905) can1 200#1BC6909005070808
(1687890495.606484) can1 500#454C495448494F4E
(1687890495.613652) can1 501#32434E46322E3335
(1687890495.619207) can1 502#0C04D02A050042
(1687890495.629475) can1 503#006F271B2808
(1687890495.639326) can1 504#0033000D004F
(1687890495.649443) can1 505#000000D200000083
(1687890495.659405) can1 506#5D001000E60023
(1687890495.669326) can1 507#10000F19120C
(1687890495.679340) can1 508#0091051B0806
(1687890496.404890) can1 204#C6C6C6C6FFFFFFFF
(1687890496.405005) can1 680#48FF0C
(1687890496.411121) can1 1806E5F4#0498008B01000000
(1687890496.411329) can1 203#C6C6C6C6C6CCC9C6
(1687890496.413098) can1 681#00000000010000
(1687890496.420928) can1 680#25FF5D
(1687890496.421129) can1 202#CCC6C9C6C9CCC9C6
(1687890496.430964) can1 680#1EFFE5
(1687890496.431164) can1 201#CCC6C9C9C6CCCCCC
(1687890496.441110) can1 200#00CC919105070808
(1687890496.608660) can1 500#454C495448494F4E
(1687890496.610240) can0 064#1A
(1687890496.612511) can0 064#33
(1687890496.613338) can0 064#37
(1687890496.615887) can1 501#32434E46322E3335
(1687890496.616369) can0 064#42
(1687890496.617783) can0 064#44
(1687890496.620327) can0 0C8#1A
(1687890496.621128) can0 0C8#33
(1687890496.621408) can1 502#0C04D12A050042
(1687890496.621825) can0 0CD#1001250A3E01
(1687890496.621888) can0 0CD#230100241F1C
(1687890496.624091) can0 0C8#37
(1687890496.624240) can0 0CD#030A2D0000
(1687890496.625534) can0 0C8#42
(1687890496.625604) can0 0CD#00
(1687890496.627270) can0 0C8#44
(1687890496.627362) can0 0CD#01
(1687890496.631605) can1 503#006F271B2808
(1687890496.641531) can1 504#0033000D004F
(1687890496.651529) can1 505#000000D200000083
(1687890496.661634) can1 506#5D001000E60023
(1687890496.671536) can1 507#10000F19120C
(1687890496.681573) can1 508#0091051B0806
(1687890497.407146) can1 204#C6C6C6C6FFFFFFFF
(1687890497.407255) can1 680#48FF0C
(1687890497.413449) can1 1806E5F4#0498008B01000000
(1687890497.413575) can1 203#C6C6C6C6C6CCC6C6
(1687890497.415224) can1 681#00000000010000
(1687890497.423084) can1 680#25FF5D
(1687890497.423294) can1 202#CCC6C6C6C6C9C9C6
(1687890497.433125) can1 680#1EFFE5
(1687890497.433303) can1 201#CCC6C9C9C6CCCCCC
(1687890497.443394) can1 200#01C6909005070808
(1687890497.610794) can1 500#454C495448494F4E
(1687890497.618003) can1 501#32434E46322E3335
(1687890497.623563) can1 502#0C04D22A050042
(1687890497.633749) can1 503#006F271B2815
(1687890497.643653) can1 504#0034000D004F
(1687890497.653659) can1 505#000000D200000083
(1687890497.663754) can1 506#5D001000E60023
(1687890497.673665) can1 507#10000F19120C
(1687890497.683659) can1 508#0091051B0806
(1687890498.408950) can1 680#48FF0C
(1687890498.409137) can1 204#C6C6C6C6FFFFFFFF
(1687890498.415337) can1 1806E5F4#0498008B01000000
(1687890498.415516) can1 203#C6C6C6C6C6CCC6C6
(1687890498.417542) can1 681#00000000010000
(1687890498.425213) can1 680#25FF5D
(1687890498.425307) can1 202#CCC6C9C6C6C9C6C6
(1687890498.435192) can1 680#1EFFE5
(1687890498.435359) can1 201#CCC6C9C9C6CCCCCC
(1687890498.445290) can1 200#02C9909005070808
(1687890498.612838) can1 500#454C495448494F4E
(1687890498.620216) can1 501#32434E46322E3335
(1687890498.625804) can1 502#0C04D32A050042
(1687890498.634543) can0 064#1A
(1687890498.635732) can1 503#006F271B2815
(1687890498.635394) can0 064#33
(1687890498.638183) can0 064#37
(1687890498.639106) can0 064#42
(1687890498.641466) can0 064#44
(1687890498.645856) can1 504#0032000D004F
(1687890498.647329) can0 0C8#1A
(1687890498.648755) can0 0CD#1E010101427E
(1687890498.652044) can0 0C8#33
(1687890498.652130) can0 0CD#2A0100241F1C
(1687890498.655408) can0 0C8#37
(1687890498.655516) can0 0CD#0339550000
(1687890498.655674) can1 505#000000D200000083
(1687890498.657374) can0 0C8#42
(1687890498.657425) can0 0CD#00
(1687890498.659809) can0 0C8#44
(1687890498.659861) can0 0CD#01
(1687890498.665796) can1 506#5D001000E60023
(1687890498.675679) can1 507#10000F19120C
(1687890498.685718) can1 508#0091051B0806
(1687890499.410886) can1 680#48FF0C
(1687890499.411097) can1 204#C6C6C6C6FFFFFFFF
(1687890499.417274) can1 1806E5F4#0498008B01000000
(1687890499.417475) can1 203#C6C6C6C6C6C6C6C6
(1687890499.418870) can1 681#00000000010000
(1687890499.427095) can1 680#25FF5D
(1687890499.427285) can1 202#C6C6C6C6C6C6C6C6
(1687890499.437126) can1 680#1EFFE5
(1687890499.437307) can1 201#C6C6C6C6C6C6C6C6
(1687890499.447265) can1 200#03C6909005070808
(1687890499.614759) can1 500#454C495448494F4E
(1687890499.622045) can1 501#32434E46322E3335
(1687890499.627521) can1 502#0C04D42A05004A
(1687890499.637724) can1 503#006F271B271B
(1687890499.647629) can1 504#006D000D004F
(1687890499.657630) can1 505#000000D200000083
(1687890499.667732) can1 506#5D001000E60023
(1687890499.677610) can1 507#10000F19120C
(1687890499.687695) can1 508#0091051B0806
(1687890500.412840) can1 680#48FF0C
(1687890500.412991) can1 204#C6C6C6C3FFFFFFFF
(1687890500.419214) can1 1806E5F4#0498008F01000000
(1687890500.419377) can1 203#C6C6C6C3C6C6C6C6
(1687890500.420609) can1 681#00000000010000
(1687890500.428993) can1 680#25FF5C
(1687890500.429175) can1 202#C6C6C6C6C6C6C6C6
(1687890500.439052) can1 680#1EFFE5
(1687890500.439202) can1 201#C6C3C6C6C6C6C6C6
(1687890500.449218) can1 200#04C68F8F05070808
(1687890500.616658) can1 500#454C495448494F4E
(1687890500.618592) can0 064#1A
(1687890500.620117) can0 064#33
(1687890500.622161) can0 064#37
(1687890500.623091) can0 064#42
(1687890500.623857) can1 501#32434E46322E3335
(1687890500.624687) can0 064#44
(1687890500.627756) can0 0C8#1A
(1687890500.629232) can0 0CD#1E010101427E
(1687890500.629387) can1 502#0C04D52A05004A
(1687890500.630688) can0 0C8#33
(1687890500.630850) can0 0CD#2C010024211C
(1687890500.633138) can0 0C8#37
(1687890500.633261) can0 0CD#0389460000
(1687890500.636112) can0 0C8#42
(1687890500.636171) can0 0CD#00
(1687890500.638907) can0 0C8#44
(1687890500.638961) can0 0CD#01
(1687890500.639630) can1 503#006F271B271B
(1687890500.649505) can1 504#0061000E004F
(1687890500.659493) can1 505#000000D200000083
(1687890500.669557) can1 506#5C001200E60023
(1687890500.679565) can1 507#10000F19120C
(1687890500.689508) can1 508#0091051B0806
(1687890501.414731) can1 680#48FF0C
(1687890501.414846) can1 204#C6C6C6C6FFFFFFFF
(1687890501.421058) can1 1806E5F4#0498009401000000
(1687890501.421185) can1 203#C6C6C6C3C6C6C6C6
(1687890501.422838) can1 681#00000000010000
(1687890501.430830) can1 680#25FF5C
(1687890501.430988) can1 202#C6C6C6C6C6C6C6C6
(1687890501.440824) can1 680#1EFFE5
(1687890501.441025) can1 201#C6C6C6C6C6C6C6C6
(1687890501.450950) can1 200#05C6919105070808
(1687890501.618505) can1 500#454C495448494F4E
(1687890501.625680) can1 501#32434E46322E3335
(1687890501.631231) can1 502#0C04D62A05004A
(1687890501.641379) can1 503#006F2713271B
(1687890501.651302) can1 504#005A000E0042
(1687890501.661349) can1 505#000000D200000083
(1687890501.671374) can1 506#5C001200E60023
(1687890501.681294) can1 507#10000F19120C
(1687890501.691302) can1 508#0091051B0806
(1687890502.416346) can1 680#48FF0C
(1687890502.416575) can1 204#C6C6C6C6FFFFFFFF
(1687890502.422736) can1 1806E5F4#0498009401000000
(1687890502.422930) can1 203#C6C6C6C6C6C6C6C6
(1687890502.423922) can1 681#00000000010000
(1687890502.432543) can1 680#25FF5C
(1687890502.432746) can1 202#C6C6C6C6C6C6C6C6
(1687890502.442554) can1 680#1EFFE5
(1687890502.442770) can1 201#C6C6C6C6C6C6C6C6
(1687890502.452689) can1 200#06C6909008070808
(1687890502.620198) can1 500#454C495448494F4E
(1687890502.627487) can1 501#32434E46322E3335
(1687890502.628526) can0 064#1A
(1687890502.632225) can0 064#37
(1687890502.632447) can0 064#33
(1687890502.632960) can1 502#0C04D72A050042
(1687890502.635098) can0 064#42
(1687890502.637922) can0 064#44
(1687890502.641749) can0 0C8#1A
(1687890502.643100) can1 503#006F2713271B
(1687890502.643230) can0 0CD#3A0100012550
(1687890502.645108) can0 0C8#33
(1687890502.645270) can0 0CD#2A010024211C
(1687890502.645623) can0 0C8#37
(1687890502.645750) can0 0CD#03C6260000
(1687890502.649840) can0 0C8#42
(1687890502.649891) can0 0CD#00
(1687890502.653161) can1 504#0043000E0030
(1687890502.653514) can0 0C8#44
(1687890502.653628) can0 0CD#01
(1687890502.663042) can1 505#000000D200000083
(1687890502.673118) can1 506#5C001200E60023
(1687890502.683054) can1 507#10000F19120C
(1687890502.693065) can1 508#0091051B0806
(1687890503.418034) can1 680#48FF0C
(1687890503.418243) can1 204#C6C6C6C6FFFFFFFF
(1687890503.424463) can1 1806E5F4#0498009401000000
(1687890503.424617) can1 203#C6C6C6C6C6C6C6C6
(1687890503.426487) can1 681#00000000010000
(1687890503.434236) can1 680#25FF5C
(1687890503.434440) can1 202#C9C6C6C6C6C6C6C6
(1687890503.444283) can1 680#1EFFE5
(1687890503.444454) can1 201#C6C6C6C6C6C9C9C9
(1687890503.454384) can1 200#07C9909005070808
(1687890503.621858) can1 500#454C495448494F4E
(1687890503.629110) can1 501#32434E46322E3335
(1687890503.634612) can1 502#0C04D82A050042
(1687890503.644777) can1 503#006F271B2808
(1687890503.654709) can1 504#003D000E0033
(1687890503.664688) can1 505#000000D200000083
(1687890503.674777) can1 506#5C001200E60023
(1687890503.684679) can1 507#10000F19120C
(1687890503.694707) can1 508#0091051B0806
(1687890504.419691) can1 680#48FF0C
(1687890504.419874) can1 204#C6C6C6C6FFFFFFFF
(1687890504.426214) can1 1806E5F4#0498009401000000
(1687890504.426331) can1 203#C6C6C6C6C6C6C6C6
(1687890504.427572) can1 681#00000000010000
(1687890504.435870) can1 680#25FF5C
(1687890504.436038) can1 202#C6C6C6C6C6C6C6C6
(1687890504.445990) can1 680#1EFFE5
(1687890504.446122) can1 201#C6C6C6C6C6C6C6C6
(1687890504.456078) can1 200#08C6919105070808
(1687890504.623462) can1 500#454C495448494F4E
(1687890504.630684) can1 501#32434E46322E3335
(1687890504.630936) can0 064#1A
(1687890504.632143) can0 064#33
(1687890504.635655) can0 064#37
(1687890504.636226) can1 502#0C04D92A050042
(1687890504.636667) can0 064#42
(1687890504.640139) can0 064#44
(1687890504.646482) can1 503#006F271B2808
(1687890504.655658) can0 0C8#1A
(1687890504.656317) can1 504#003F000E0036
(1687890504.656574) can0 0C8#33
(1687890504.657213) can0 0CD#01121D4D3301
(1687890504.657338) can0 0CD#2C010024211C
(1687890504.658827) can0 0C8#37
(1687890504.658996) can0 0CD#03E0260000
(1687890504.660914) can0 0C8#42
(1687890504.661031) can0 0CD#00
(1687890504.662807) can0 0C8#44
(1687890504.662858) can0 0CD#01
(1687890504.666311) can1 505#000000D200000083
(1687890504.676369) can1 506#5C001200E60023
(1687890504.686299) can1 507#10000F19120C
(1687890504.696311) can1 508#0091051B0806
(1687890505.421298) can1 680#48FF0C
(1687890505.421440) can1 204#C6C6C6C6FFFFFFFF
(1687890505.427618) can1 1806E5F4#0498009401000000
(1687890505.427801) can1 203#C6C6C6C6C6C6C6C6
(1687890505.429460) can1 681#00000000010000
(1687890505.437543) can1 680#25FF5C
(1687890505.437645) can1 202#C9C6C6C6C6C6C6C6
(1687890505.447470) can1 680#1EFFE5
(1687890505.447638) can1 201#C6C6C6C6C6C6C6C9
(1687890505.457640) can1 200#09C6919105070808
(1687890505.625031) can1 500#454C495448494F4E
(1687890505.632227) can1 501#32434E46322E3335
(1687890505.637774) can1 502#0C04DA2A050042
(1687890505.647945) can1 503#006F271B2808
(1687890505.657879) can1 504#004A000E0039
(1687890505.667865) can1 505#000000D200000083
(1687890505.677941) can1 506#5C001200E60023
(1687890505.687860) can1 507#10000F19120C
(1687890505.697857) can1 508#0091051B0806
(1687890506.422771) can1 680#48FF0C
(1687890506.422947) can1 204#C3C6C6C0FFFFFFFF
(1687890506.429142) can1 1806E5F4#0498009401000000
(1687890506.429320) can1 203#C6C3C3C0C3C6C6C6
(1687890506.430791) can1 681#00000000010000
(1687890506.438953) can1 680#25FF5C
(1687890506.439118) can1 202#C6C3C6C3C6C6C6C6
(1687890506.448961) can1 680#1EFFE5
(1687890506.449142) can1 201#C6C3C6C6C6C6C6C6
(1687890506.459081) can1 200#0AC6919105070808
(1687890506.626568) can1 500#454C495448494F4E
(1687890506.632178) can0 064#1A
(1687890506.633774) can1 501#32434E46322E3335
(1687890506.636224) can0 064#37
(1687890506.638853) can0 064#42
(1687890506.639322) can1 502#0C04DB2A05004A
(1687890506.641568) can0 064#44
(1687890506.641783) can0 064#33
(1687890506.646169) can0 0C8#1A
(1687890506.647706) can0 0CD#01121D4D3301
(1687890506.648332) can0 0C8#33
(1687890506.648448) can0 0CD#32010024211C
(1687890506.649459) can1 503#006F271B2808
(1687890506.649810) can0 0C8#37
(1687890506.649959) can0 0CD#04113A0000
(1687890506.650570) can0 0C8#42
(1687890506.650621) can0 0CD#00
(1687890506.653605) can0 0C8#44
(1687890506.653715) can0 0CD#01
(1687890506.659474) can1 504#0067000E003C
(1687890506.669397) can1 505#000000D200000083
(1687890506.679461) can1 506#5C001200E60023
(1687890506.689357) can1 507#10000F19120C
(1687890506.699360) can1 508#0091051B0806
(1687890507.424233) can1 680#48FF0C
(1687890507.424417) can1 204#C6C6C6C6FFFFFFFF
(1687890507.430590) can1 1806E5F4#0498009A01000000
(1687890507.430783) can1 203#C6C6C6C3C6C6C6C6
(1687890507.432614) can1 681#00000000010000
(1687890507.440404) can1 680#25FF5B
(1687890507.440592) can1 202#C6C6C6C6C6C6C6C6
(1687890507.450438) can1 680#1EFFE5
(1687890507.450607) can1 201#C6C6C6C6C6C6C6C6
(1687890507.460545) can1 200#0BC6909005070808
(1687890507.628020) can1 500#454C495448494F4E
(1687890507.635233) can1 501#32434E46322E3335
(1687890507.640761) can1 502#0C04DC2A05004A
(1687890507.651005) can1 503#006F2713271B
(1687890507.660851) can1 504#0054000F0033
(1687890507.670846) can1 505#000000D200000083
(1687890507.680898) can1 506#5B001400E60023
(1687890507.690790) can1 507#10000F19120C
(1687890507.700835) can1 508#0091051B0806
(1687890508.425656) can1 680#48FF0C
(1687890508.425878) can1 204#C6C6C6C6FFFFFFFF
(1687890508.432022) can1 1806E5F4#0498009B01000000
(1687890508.432199) can1 203#C6C6C6C6C6C6C6C6
(1687890508.433407) can1 681#00000000010000
(1687890508.441841) can1 680#25FF5B
(1687890508.442007) can1 202#C6C6C6C6C6C6C6C6
(1687890508.451817) can1 680#1EFFE5
(1687890508.452015) can1 201#C6C6C6C6C6C6C6C6
(1687890508.461964) can1 200#0CC6929205070808
(1687890508.629469) can1 500#454C495448494F4E
(1687890508.634663) can0 064#1A
(1687890508.636676) can1 501#32434E46322E3335
(1687890508.637658) can0 064#33
(1687890508.641265) can0 064#37
(1687890508.642154) can1 502#0C04DD2A050042
(1687890508.642172) can0 064#42
(1687890508.643731) can0 064#44
(1687890508.648290) can0 0C8#33
(1687890508.648428) can0 0CD#2F010024211C
(1687890508.649144) can0 0C8#1A
(1687890508.650640) can0 0CD#340E00012E59
(1687890508.652327) can1 503#006F2713271B
(1687890508.652968) can0 0C8#37
(1687890508.653133) can0 0CD#04331D0000
(1687890508.653185) can0 0C8#42
(1687890508.653302) can0 0CD#00
(1687890508.659442) can0 0C8#44
(1687890508.659504) can0 0CD#01
(1687890508.662233) can1 504#003E000F0028
(1687890508.672214) can1 505#000000D200000083
(1687890508.682321) can1 506#5B001400E60023
(1687890508.692203) can1 507#10000F19120C
(1687890508.702248) can1 508#0091051B0806
(1687890509.427000) can1 680#48FF0C
(1687890509.427202) can1 204#C6C6C6C6FFFFFFFF
(1687890509.433397) can1 1806E5F4#0498009B01000000
(1687890509.433566) can1 203#C6C6C6C6C6C6C6C6
(1687890509.435644) can1 681#00000000010000
(1687890509.443184) can1 680#25FF5B
(1687890509.443373) can1 202#C9C6C6C6C6C6C6C6
(1687890509.453202) can1 680#1EFFE5
(1687890509.453392) can1 201#C6C6C6C6C6C9C9C9
(1687890509.463316) can1 200#0DC6919105070808
(1687890509.630762) can1 500#454C495448494F4E
(1687890509.637933) can1 501#32434E46322E3335
(1687890509.643500) can1 502#0C04DE2A050042
(1687890509.653659) can1 503#006F271B2808
(1687890509.663584) can1 504#003A000F002B
(1687890509.673576) can1 505#000000D200000083
(1687890509.683641) can1 506#5B001400E60023
(1687890509.693552) can1 507#10000F19120C
(1687890509.703622) can1 508#0091051B0806
(1687890510.428369) can1 680#48FF0C
(1687890510.428543) can1 204#C6C6C6C6FFFFFFFF
(1687890510.434866) can1 1806E5F4#0498009B01000000
(1687890510.434978) can1 203#C6C6C6C6C6C6C6C6
(1687890510.436477) can1 681#00000000010000
(1687890510.444553) can1 680#25FF5B
(1687890510.444720) can1 202#C6C6C6C6C6C6C6C6
(1687890510.454683) can1 680#1EFFE5
(1687890510.454802) can1 201#C6C6C6C6C6C6C6C6
(1687890510.464670) can1 200#0EC68F8F05070808
(1687890510.632094) can1 500#454C495448494F4E
(1687890510.634173) can0 064#1A
(1687890510.635781) can0 064#33
(1687890510.638560) can0 064#37
(1687890510.639338) can1 501#32434E46322E3335
(1687890510.641029) can0 064#42
(1687890510.644404) can0 064#44
(1687890510.644866) can1 502#0C04DF2A050042
(1687890510.650212) can0 0C8#1A
(1687890510.651840) can0 0CD#161201270157
(1687890510.652682) can0 0C8#33
(1687890510.652820) can0 0CD#2F010024221C
(1687890510.655027) can1 503#006F271B2808
(1687890510.655572) can0 0C8#37
(1687890510.655699) can0 0CD#044C1B0000
(1687890510.655882) can0 0C8#42
(1687890510.656020) can0 0CD#00
(1687890510.657515) can0 0C8#44
(1687890510.657633) can0 0CD#01
(1687890510.664930) can1 504#003B000F002E
(1687890510.674907) can1 505#000000D200000083
(1687890510.684970) can1 506#5B001400E60023
(1687890510.694912) can1 507#10000F19120C
(1687890510.704914) can1 508#0091051B0806
(1687890511.429628) can1 680#48FF0C
(1687890511.429850) can1 204#C6C6C6C6FFFFFFFF
(1687890511.436096) can1 1806E5F4#0498009B01000000
(1687890511.436198) can1 203#C6C6C6C6C6C6C6C6
(1687890511.437052) can1 681#00000000010000
(1687890511.445827) can1 680#25FF5B
(1687890511.446012) can1 202#C9C6C6C6C6C6C6C6
(1687890511.455867) can1 680#1EFFE5
(1687890511.456029) can1 201#C6C6C6C6C6C9C9C9
(1687890511.466003) can1 200#0FC68F8F05070808
(1687890511.633382) can1 500#454C495448494F4E
(1687890511.640599) can1 501#32434E46322E3335
(1687890511.646139) can1 502#0C04E02A050042
(1687890511.656280) can1 503#006F271B2808
(1687890511.666345) can1 504#0030000F0032
(1687890511.676217) can1 505#000000D200000083
(1687890511.686276) can1 506#5B001400E60023
(1687890511.696196) can1 507#10000F19120C
(1687890511.706240) can1 508#0091051B0806
(1687890512.430878) can1 680#48FF0C
(1687890512.431092) can1 204#C6C6C6C6FFFFFFFF
(1687890512.437268) can1 1806E5F4#0498009B01000000
(1687890512.437461) can1 203#C6C6C6C6C6C6C6C6
(1687890512.439160) can1 681#00000000010000
(1687890512.447068) can1 680#25FF5B
(1687890512.447262) can1 202#C9C6C6C6C6C6C6C6
(1687890512.457131) can1 680#1EFFE5
(1687890512.457287) can1 201#C9C6C6C6C6C9C9C9
(1687890512.467186) can1 200#10C6909005070808
(1687890512.634803) can1 500#454C495448494F4E
(1687890512.641264) can0 064#1A
(1687890512.641861) can1 501#32434E46322E3335
(1687890512.643980) can0 064#33
(1687890512.646266) can0 064#37
(1687890512.647401) can1 502#0C04E12A050042
(1687890512.649935) can0 064#42
(1687890512.652203) can0 064#44
(1687890512.654023) can0 0C8#1A
(1687890512.655529) can0 0CD#0E1301430138
(1687890512.657673) can1 503#006F271B2808
(1687890512.662331) can0 0C8#33
(1687890512.662396) can0 0CD#2F010024221C
(1687890512.667494) can1 504#0033000F0035
(1687890512.668087) can0 0C8#37
(1687890512.668140) can0 0CD#045B170000
(1687890512.670466) can0 0C8#42
(1687890512.670522) can0 0CD#00
(1687890512.671830) can0 0C8#44
(1687890512.671942) can0 0CD#01
(1687890512.677445) can1 505#000000D200000083
(1687890512.687524) can1 506#5B001400E60023
(1687890512.697588) can1 507#10000F19120C
(1687890512.707426) can1 508#0091051B0806
(1687890513.432120) can1 680#48FF0C
(1687890513.432322) can1 204#C6C6C6C6FFFFFFFF
(1687890513.438493) can1 1806E5F4#0498009B01000000
(1687890513.438688) can1 203#C6C6C6C6C6C6C6C6
(1687890513.440757) can1 681#00000000010000
(1687890513.448331) can1 680#25FF5B
(1687890513.448483) can1 202#C9C6C6C6C6C6C6C6
(1687890513.458317) can1 680#1EFFE5
(1687890513.458500) can1 201#C6C6C6C6C6C9C9C9
(1687890513.468433) can1 200#11C6909005070808
(1687890513.635852) can1 500#454C495448494F4E
(1687890513.643065) can1 501#32434E46322E3335
(1687890513.648575) can1 502#0C04E22A050042
(1687890513.658786) can1 503#006F271B2808
(1687890513.668669) can1 504#002A000F0038
(1687890513.678674) can1 505#000000D200000083
(1687890513.688732) can1 506#5B001400E60023
(1687890513.698644) can1 507#10000F19120C
(1687890513.708644) can1 508#0091051B0806
(1687890514.433342) can1 680#48FF0C
(1687890514.433504) can1 204#C6C9C9C6FFFFFFFF
(1687890514.439762) can1 1806E5F4#0498009B01000000
(1687890514.439867) can1 203#C6C9C6C6C6CCC9C9
(1687890514.441334) can1 681#00000000010000
(1687890514.449487) can1 680#25FF5B
(1687890514.449677) can1 202#CCC9C9C6C6CCCCC9
(1687890514.459570) can1 680#1EFFE5
(1687890514.459715) can1 201#CCC6CCCCC9CCCCCC
(1687890514.469620) can1 200#12C6909005070808
(1687890514.637150) can1 500#454C495448494F4E
(1687890514.640873) can0 064#1A
(1687890514.641740) can0 064#33
(1687890514.644273) can1 501#32434E46322E3335
(1687890514.645731) can0 064#37
(1687890514.647674) can0 064#42
(1687890514.649960) can1 502#0C04E32A050042
(1687890514.654577) can0 064#44
(1687890514.657996) can0 0C8#1A
(1687890514.659525) can0 0CD#0E1301430138
(1687890514.659944) can1 503#006F271B2808
(1687890514.661151) can0 0C8#33
(1687890514.661285) can0 0CD#31010024221E
(1687890514.665532) can0 0C8#37
(1687890514.665662) can0 0CD#04532B0000
(1687890514.669229) can0 0C8#42
(1687890514.669314) can0 0CD#00
(1687890514.669892) can1 504#0014000F003B
(1687890514.671284) can0 0C8#44
(1687890514.671458) can0 0CD#01
(1687890514.679854) can1 505#000000D200000083
(1687890514.689946) can1 506#5B001400E60023
(1687890514.699819) can1 507#10000F19120C
(1687890514.709828) can1 508#0091051B0806
(1687890515.434524) can1 680#48FF0C
(1687890515.434706) can1 204#C6C6C6C6FFFFFFFF
(1687890515.440843) can1 1806E5F4#0498009B01000000
(1687890515.441056) can1 203#C6C6C6C6C6CCC6C6
(1687890515.442328) can1 681#00000000010000
(1687890515.450653) can1 680#25FF5B
(1687890515.450847) can1 202#CCC6C9C6C6C9C9C6
(1687890515.460669) can1 680#1EFFE5
(1687890515.460865) can1 201#CCC6CCC9C6CCCCCC
(1687890515.470942) can1 200#13C68F8F07070808
(1687890515.638312) can1 500#454C495448494F4E
(1687890515.645360) can1 501#32434E46322E3335
(1687890515.650930) can1 502#0C04E42A050042
(1687890515.661084) can1 503#006F271B2815
(1687890515.671038) can1 504#0022000F003E
(1687890515.681074) can1 505#000000D200000083
(1687890515.691141) can1 506#5B001400E60023
(1687890515.700988) can1 507#10000F19120C
(1687890515.710993) can1 508#0091051B0806
(1687890516.435588) can1 680#48FF0C
(1687890516.435815) can1 204#C6C6C6C6FFFFFFFF
(1687890516.442017) can1 1806E5F4#0498009B01000000
(1687890516.442175) can1 203#C6C6C6C6C6C9C6C6
(1687890516.443856) can1 681#00000000010000
(1687890516.451797) can1 680#25FF5B
(1687890516.451974) can1 202#CCC6C9C6C6CCCCC6
(1687890516.461811) can1 680#1EFFE5
(1687890516.461991) can1 201#CCC6CCC9C6CCCCCC
(1687890516.471957) can1 200#14C68F8F05070808
(1687890516.639326) can1 500#454C495448494F4E
(1687890516.641372) can0 064#1A
(1687890516.645695) can0 064#33
(1687890516.646529) can1 501#32434E46322E3335
(1687890516.647616) can0 064#37
(1687890516.650798) can0 064#42
(1687890516.652072) can1 502#0C04E52A050042
(1687890516.652723) can0 064#44
(1687890516.655985) can0 0C8#1A
(1687890516.657438) can0 0CD#250001013360
(1687890516.658770) can0 0C8#33
(1687890516.658834) can0 0CD#2E010024221C
(1687890516.661401) can0 0C8#37
(1687890516.661540) can0 0CD#044C1D0000
(1687890516.662224) can1 503#006F271B2815
(1687890516.666017) can0 0C8#42
(1687890516.666134) can0 0CD#00
(1687890516.666326) can0 0C8#44
(1687890516.666455) can0 0CD#01
(1687890516.672142) can1 504#001A000F0041
(1687890516.682120) can1 505#000000D200000083
(1687890516.692199) can1 506#5B001400E60023
(1687890516.702112) can1 507#10000F19120C
(1687890516.712112) can1 508#0091051B0806
(1687890517.436712) can1 680#48FF0C
(1687890517.436936) can1 204#C6C6C9C6FFFFFFFF
(1687890517.443088) can1 1806E5F4#0498009B01000000
(1687890517.443280) can1 203#C6C9C6C6C6CCC9C9
(1687890517.444322) can1 681#00000000010000
(1687890517.452879) can1 680#25FF5B
(1687890517.453084) can1 202#CCC6C9C6C9CCCCC6
(1687890517.462890) can1 680#1EFFE5
(1687890517.463103) can1 201#CCC6CCC9C9CCCCCC
(1687890517.473066) can1 200#15CC919105070808
(1687890517.640432) can1 500#454C495448494F4E
(1687890517.647613) can1 501#32434E46322E3335
(1687890517.653151) can1 502#0C04E62A050042
(1687890517.663312) can1 503#0070271B2815
(1687890517.673251) can1 504#0015000F0044
(1687890517.683211) can1 505#000000D200000083
(1687890517.693290) can1 506#5B001400E60023
(1687890517.703255) can1 507#10000F19120C
(1687890517.713246) can1 508#0091051B0806
(1687890518.437821) can1 680#48FF0C
(1687890518.438020) can1 204#C6C9C9C6FFFFFFFF
(1687890518.444177) can1 1806E5F4#0498009B01000000
(1687890518.444370) can1 203#C6C9C6C6C6CCC9C9
(1687890518.446282) can1 681#00000000010000
(1687890518.453991) can1 680#25FF5B
(1687890518.454169) can1 202#CCC9C9C9C6CCCCC9
(1687890518.463965) can1 680#1EFFE5
(1687890518.464181) can1 201#CCC6CCCCC9CCCCCC
(1687890518.474110) can1 200#16C9909005070808
(1687890518.641508) can1 500#454C495448494F4E
(1687890518.645963) can0 064#1A
(1687890518.648147) can0 064#33
(1687890518.648708) can1 501#32434E46322E3335
(1687890518.650740) can0 064#37
(1687890518.654274) can1 502#0C04E72A050042
(1687890518.654354) can0 064#42
(1687890518.659266) can0 064#44
(1687890518.661599) can0 0C8#1A
(1687890518.663106) can0 0CD#011D00580116
(1687890518.664423) can1 503#0070271B2815
(1687890518.665831) can0 0C8#37
(1687890518.665935) can0 0CD#0430170000
(1687890518.666097) can0 0C8#33
(1687890518.666267) can0 0CD#2C010024221C
(1687890518.671065) can0 0C8#42
(1687890518.671190) can0 0CD#00
(1687890518.674350) can1 504#0013000F0047
(1687890518.674289) can0 0C8#44
(1687890518.674375) can0 0CD#01
(1687890518.684303) can1 505#000000D200000083
(1687890518.694414) can1 506#5B001400E60023
(1687890518.704304) can1 507#10000F19120C
(1687890518.714357) can1 508#0091051B0806
(1687890519.438878) can1 680#48FF0C
(1687890519.439069) can1 204#C9C9C9C9FFFFFFFF
(1687890519.445306) can1 1806E5F4#0498009B01000000
(1687890519.445412) can1 203#C9CCC6C6C9CCCCC9
(1687890519.446808) can1 681#00000000010000
(1687890519.455040) can1 680#25FF5B
(1687890519.455229) can1 202#CCCCCCC9CCCCCCC9
(1687890519.465072) can1 680#1EFFE5
(1687890519.465238) can1 201#CCC6CCCCC9CCCCCC
(1687890519.475206) can1 200#17C98F8F05070808
(1687890519.642592) can1 500#454C495448494F4E
(1687890519.649732) can1 501#32434E46322E3335
(1687890519.655287) can1 502#0C04E82A050042
(1687890519.665512) can1 503#007027132816
(1687890519.675396) can1 504#0009000F004B
(1687890519.685387) can1 505#000000D200000083
(1687890519.695654) can1 506#5B001400E60023
(1687890519.705394) can1 507#10000F19120C
(1687890519.715433) can1 508#0091051B0806
(1687890520.440085) can1 680#48FF0C
(1687890520.440250) can1 204#CCCCCCCCFFFFFFFF
(1687890520.446384) can1 1806E5F4#0498009B01000000
(1687890520.446496) can1 203#CCCCC6C6CCCCCCCC
(1687890520.448608) can1 681#00000000010000
(1687890520.456114) can1 680#25FF5B
(1687890520.456288) can1 202#CCCCCCCCCCCCCCCC
(1687890520.466225) can1 680#1EFFE5
(1687890520.466362) can1 201#CCC6CCCCCCCCCCCC
(1687890520.476204) can1 200#18CC8F8F05070808
(1687890520.643658) can1 500#454C495448494F4E
(1687890520.649278) can0 064#1A
(1687890520.650804) can1 501#32434E46322E3335
(1687890520.652121) can0 064#33
(1687890520.654857) can0 064#37
(1687890520.656386) can1 502#0C04E92A050042
(1687890520.658425) can0 064#42
(1687890520.660325) can0 064#44
(1687890520.666624) can1 503#007027132816
(1687890520.668526) can0 0C8#1A
(1687890520.669992) can0 0CD#011D00580116
(1687890520.670499) can0 0C8#33
(1687890520.670658) can0 0CD#23000024221C
(1687890520.674944) can0 0C8#37
(1687890520.675071) can0 0CD#0411000000
(1687890520.676456) can1 504#0000000E004E
(1687890520.677488) can0 0CD#00
(1687890520.677550) can0 0C8#42
(1687890520.681652) can0 0C8#44
(1687890520.681814) can0 0CD#01
(1687890520.686437) can1 505#000000D200000083
(1687890520.696489) can1 506#5B001400E60023
(1687890520.706361) can1 507#10000F19120C
(1687890520.716382) can1 508#0091051B0806
(1687890521.440806) can1 680#48FF0C
(1687890521.440970) can1 204#CCCCCCCCFFFFFFFF
(1687890521.447324) can1 1806E5F4#0498009401000000
(1687890521.447484) can1 203#CCCCC6C6CCCCCCCC
(1687890521.449057) can1 681#00000000010000
(1687890521.457117) can1 680#25FF5C
(1687890521.457281) can1 202#CCCCCCCCCCCCCCCC
(1687890521.467154) can1 680#1EFFE5
(1687890521.467296) can1 201#CCC6CCCCCCCCCCCC
(1687890521.477216) can1 200#19CC8F8F05070808
(1687890521.644604) can1 500#454C495448494F4E
(1687890521.651821) can1 501#32434E46322E3335
(1687890521.657377) can1 502#0C04EA2A050042
(1687890521.667500) can1 503#00702713281B
(1687890521.677470) can1 504#0000000E004F
(1687890521.687406) can1 505#000000D200000083
(1687890521.697483) can1 506#5C001200E60023
(1687890521.707418) can1 507#10000F19120C
(1687890521.717472) can1 508#0091051B0806
(1687890522.441628) can1 680#48FF0C
(1687890522.441818) can1 204#CCCCCCCCFFFFFFFF
(1687890522.448177) can1 1806E5F4#0498009401000000
(1687890522.448366) can1 203#CCCCC6C6CCCCCCCC
(1687890522.449405) can1 681#00000000010000
(1687890522.457941) can1 680#25FF5C
(1687890522.458150) can1 202#CCCCCCCCCCCCCCCC
(1687890522.467983) can1 680#1EFFE5
(1687890522.468171) can1 201#CCC6CCCCCCCCCCCC
(1687890522.478111) can1 200#1ACC909005070808
(1687890522.645484) can1 500#454C495448494F4E
(1687890522.650836) can0 064#1A
(1687890522.652685) can1 501#32434E46322E3335
(1687890522.654205) can0 064#33
(1687890522.654593) can0 064#37
(1687890522.656939) can0 064#42
(1687890522.658032) can0 064#44
(1687890522.658177) can1 502#0C04EB2A050042
(1687890522.660456) can0 0C8#1A
(1687890522.662026) can0 0CD#010001601329
(1687890522.662236) can0 0C8#33
(1687890522.662386) can0 0CD#20000024221C
(1687890522.664047) can0 0C8#37
(1687890522.664254) can0 0CD#03B4000000
(1687890522.665232) can0 0C8#42
(1687890522.665341) can0 0CD#00
(1687890522.668388) can1 503#00702713281B
(1687890522.668874) can0 0C8#44
(1687890522.668924) can0 0CD#01
(1687890522.678300) can1 504#0000000E004F
(1687890522.688268) can1 505#000000D200000083
(1687890522.698333) can1 506#5C001200E60023
(1687890522.708277) can1 507#10000F19120C
(1687890522.718230) can1 508#0091051B0806
(1687890523.442588) can1 680#48FF0C
(1687890523.442806) can1 204#CCCCCCCCFFFFFFFF
(1687890523.449138) can1 1806E5F4#0498009401000000
(1687890523.449318) can1 203#CCCCC9C6CCCCCCCC
(1687890523.451180) can1 681#00000000010000
(1687890523.458922) can1 680#25FF5C
(1687890523.459133) can1 202#CCCCCCCCCCCCCCCC
(1687890523.468945) can1 680#1EFFE5
(1687890523.469136) can1 201#CCC6CCCCCCCCCCCC
(1687890523.479128) can1 200#1BCC909005070808
(1687890523.646461) can1 500#454C495448494F4E
(1687890523.653649) can1 501#32434E46322E3335
(1687890523.659193) can1 502#0C04EC2A050042
(1687890523.669345) can1 503#00702713281B
(1687890523.679361) can1 504#0000000E004F
(1687890523.689276) can1 505#000000D200000083
(1687890523.699328) can1 506#5C001200E60023
(1687890523.709326) can1 507#10000F19120C
(1687890523.719257) can1 508#0091051B0806
(1687890524.443586) can1 680#48FF0C
(1687890524.443779) can1 204#CCCCCCCCFFFFFFFF
(1687890524.450130) can1 1806E5F4#0498009401000000
(1687890524.450296) can1 203#CCCCC9C6CCCCCCCC
(1687890524.451535) can1 681#00000000010000
(1687890524.459903) can1 680#25FF5C
(1687890524.460095) can1 202#CCCCCCCCCCCCCCCC
(1687890524.469930) can1 680#1EFFE5
(1687890524.470116) can1 201#CCC6CCCCCCCCCCCC
(1687890524.480032) can1 200#00CC919105070808
(1687890524.647410) can1 500#454C495448494F4E
(1687890524.649904) can0 064#1A
(1687890524.651276) can0 064#33
(1687890524.653897) can0 064#37
(1687890524.654602) can1 501#32434E46322E3335
(1687890524.655856) can0 064#42
(1687890524.656058) can0 064#44
(1687890524.658688) can0 0C8#1A
(1687890524.660154) can1 502#0C04ED2A050042
(1687890524.660340) can0 0CD#010101175A25
(1687890524.660401) can0 0C8#33
(1687890524.660562) can0 0CD#1B000024221C
(1687890524.661835) can0 0C8#37
(1687890524.661976) can0 0CD#0321000000
(1687890524.664288) can0 0C8#42
(1687890524.664338) can0 0CD#00
(1687890524.666490) can0 0C8#44
(1687890524.666608) can0 0CD#01
(1687890524.670316) can1 503#00702713281B
(1687890524.680219) can1 504#0000000E004F
(1687890524.690183) can1 505#000000D200000083
(1687890524.700259) can1 506#5C001200E60023
(1687890524.710216) can1 507#10000F19120C
(1687890524.720194) can1 508#0091051B0806
(1687890525.444523) can1 680#48FF0C
(1687890525.444725) can1 204#CCCCCCCCFFFFFFFF
(1687890525.451213) can1 1806E5F4#0498009401000000
(1687890525.451356) can1 203#CCCCC9C6CCCCCCCC
(1687890525.453011) can1 681#00000000010000
(1687890525.460888) can1 680#25FF5C
(1687890525.461058) can1 202#CCCCCCCCCCCCCCCC
(1687890525.470999) can1 680#1EFFE5
(1687890525.471114) can1 201#CCC6CCCCCCCCCCCC
(1687890525.481014) can1 200#01C6909005070808
(1687890525.648498) can1 500#454C495448494F4E
(1687890525.655541) can1 501#32434E46322E3335
(1687890525.661192) can1 502#0C04EE2A050042
(1687890525.671305) can1 503#00702713281B
(1687890525.681187) can1 504#0000000E004F
(1687890525.691156) can1 505#000000D200000083
(1687890525.701215) can1 506#5C001200E60023
(1687890525.711111) can1 507#10000F19120C
(1687890525.721126) can1 508#0091051B0806
(1687890526.445438) can1 680#48FF0C
(1687890526.445645) can1 204#CCCCCCCCFFFFFFFF
(1687890526.452027) can1 1806E5F4#0498009401000000
(1687890526.452172) can1 203#CCCCC9C6CCCCCCCC
(1687890526.453660) can1 681#00000000010000
(1687890526.461780) can1 680#25FF5C
(1687890526.461971) can1 202#CCCCCCCCCCCCCCCC
(1687890526.471777) can1 680#1EFFE5
(1687890526.471985) can1 201#CCC6CCCCCCCCCCCC
(1687890526.481896) can1 200#02CC909005070808
(1687890526.649454) can1 500#454C495448494F4E
(1687890526.656454) can0 064#1A
(1687890526.656513) can1 501#32434E46322E3335
(1687890526.657823) can0 064#33
(1687890526.660037) can0 064#37
(1687890526.661991) can0 064#42
(1687890526.662050) can1 502#0C04EF2A050042
(1687890526.663634) can0 064#44
(1687890526.665464) can0 0C8#1A
(1687890526.666061) can0 0C8#33
(1687890526.666935) can0 0CD#0001002A4C09
(1687890526.667004) can0 0CD#16000024221C
(1687890526.669089) can0 0C8#37
(1687890526.669204) can0 0CD#028D000000
(1687890526.672214) can1 503#00702713281B
(1687890526.672981) can0 0C8#42
(1687890526.673068) can0 0CD#00
(1687890526.676662) can0 0C8#44
(1687890526.676720) can0 0CD#01
(1687890526.682105) can1 504#0000000E004F
(1687890526.692090) can1 505#000000D200000083
(1687890526.702172) can1 506#5C001200E60023
(1687890526.712063) can1 507#10000F19120C
(1687890526.722048) can1 508#0091051B0806
(1687890527.446399) can1 680#48FF0C
(1687890527.446564) can1 204#CCCCCCCCFFFFFFFF
(1687890527.452920) can1 1806E5F4#0498009401000000
(1687890527.453105) can1 203#CCCCC9C6CCCCCCCC
(1687890527.454974) can1 681#00000000010000
(1687890527.462686) can1 680#25FF5C
(1687890527.462898) can1 202#CCCCCCCCCCCCCCCC
(1687890527.472736) can1 680#1EFFE5
(1687890527.472913) can1 201#CCC6CCCCCCCCCCCC
(1687890527.482912) can1 200#03CC909005070808
(1687890527.650234) can1 500#454C495448494F4E
(1687890527.657411) can1 501#32434E46322E3335
(1687890527.662968) can1 502#0C04F02A050042
(1687890527.673179) can1 503#00702713281B
(1687890527.683072) can1 504#0000000E004F
(1687890527.693020) can1 505#000000D200000083
(1687890527.703187) can1 506#5C001200E60023
(1687890527.713039) can1 507#10000F19120C
(1687890527.723005) can1 508#0091051B0806
(1687890528.447343) can1 680#48FF0C
(1687890528.447514) can1 204#CCCCCCCCFFFFFFFF
(1687890528.453810) can1 1806E5F4#0498009401000000
(1687890528.454003) can1 203#CCCCC9C9CCCCCCCC
(1687890528.455233) can1 681#00000000010000
(1687890528.463708) can1 680#25FF5C
(1687890528.463834) can1 202#CCCCCCCCCCCCCCCC
(1687890528.473631) can1 680#1EFFE5
(1687890528.473820) can1 201#CCC6CCCCCCCCCCCC
(1687890528.483761) can1 200#04CC8F8F05070808
(1687890528.651139) can1 500#454C495448494F4E
(1687890528.654166) can0 064#1A
(1687890528.655520) can0 064#33
(1687890528.656732) can0 064#37
(1687890528.658308) can1 501#32434E46322E3335
(1687890528.659436) can0 064#42
(1687890528.660891) can0 064#44
(1687890528.662472) can0 0C8#1A
(1687890528.663849) can1 502#0C04F12A050042
(1687890528.663950) can0 0CD#010101333601
(1687890528.664532) can0 0C8#33
(1687890528.664665) can0 0CD#12000024221C
(1687890528.666479) can0 0C8#37
(1687890528.666603) can0 0CD#0222000000
(1687890528.668944) can0 0C8#42
(1687890528.669025) can0 0CD#00
(1687890528.672878) can0 0C8#44
(1687890528.672940) can0 0CD#01
(1687890528.674066) can1 503#00702713281B
(1687890528.683970) can1 504#0000000E004F
(1687890528.693993) can1 505#000000D200000083
(1687890528.703999) can1 506#5C001200E60023
(1687890528.713985) can1 507#10000F19120C
(1687890528.723914) can1 508#0091051B0806
(1687890529.448190) can1 680#48FF0C
(1687890529.448377) can1 204#CCCCCCCCFFFFFFFF
(1687890529.454733) can1 1806E5F4#0498009401000000
(1687890529.454909) can1 203#CCCCC9C9CCCCCCCC
(1687890529.455980) can1 681#00000000010000
(1687890529.464534) can1 680#25FF5C
(1687890529.464697) can1 202#CCCCCCCCCCCCCCCC
(1687890529.474513) can1 680#1EFFE5
(1687890529.474731) can1 201#CCC6CCCCCCCCCCCC
(1687890529.484666) can1 200#05CC909005070808
(1687890529.652024) can1 500#454C495448494F4E
(1687890529.659252) can1 501#32434E46322E3335
(1687890529.664764) can1 502#0C04F22A050042
(1687890529.674905) can1 503#00712701281B
(1687890529.684837) can1 504#0000000E004F
(1687890529.694797) can1 505#000000D200000083
(1687890529.704959) can1 506#5C001200E60023
(1687890529.714814) can1 507#10000F19120C
(1687890529.724768) can1 508#0091051B0806
(1687890530.449058) can1 680#48FF0C
(1687890530.449263) can1 204#CCCCCCCCFFFFFFFF
(1687890530.455582) can1 1806E5F4#0498009401000000
(1687890530.455791) can1 203#CCCCC9C9CCCCCCCC
(1687890530.457236) can1 681#00000000010000
(1687890530.465383) can1 680#25FF5C
(1687890530.465588) can1 202#CCCCCCCCCCCCCCCC
(1687890530.475413) can1 680#1EFFE5
(1687890530.475602) can1 201#CCC6CCCCCCCCCCCC
(1687890530.485518) can1 200#06CC909008070808
(1687890530.652880) can1 500#454C495448494F4E
(1687890530.654163) can0 064#1A
(1687890530.656329) can0 064#33
(1687890530.657650) can0 064#37
(1687890530.658587) can0 064#42
(1687890530.660084) can1 501#32434E46322E3335
(1687890530.660425) can0 064#44
(1687890530.662322) can0 0C8#1A
(1687890530.663815) can0 0CD#00010101222F
(1687890530.664401) can0 0C8#33
(1687890530.664560) can0 0CD#11000025221C
(1687890530.665667) can1 502#0C04F32A050042
(1687890530.666174) can0 0C8#37
(1687890530.666278) can0 0CD#01F0000000
(1687890530.667712) can0 0C8#42
(1687890530.667764) can0 0CD#00
(1687890530.668945) can0 0C8#44
(1687890530.668996) can0 0CD#01
(1687890530.675801) can1 503#00712701281B
(1687890530.685702) can1 504#0000000E004F
(1687890530.695673) can1 505#000000D200000083
(1687890530.705745) can1 506#5C001200E60023
(1687890530.715681) can1 507#10000F19120C
(1687890530.725660) can1 508#0091051B0806
(1687890531.449961) can1 680#48FF0C
(1687890531.450131) can1 204#CCCCCCCCFFFFFFFF
(1687890531.456598) can1 1806E5F4#0498009401000000
(1687890531.456711) can1 203#CCCCC9C9CCCCCCCC
(1687890531.457616) can1 681#00000000010000
(1687890531.466282) can1 680#25FF5C
(1687890531.466478) can1 202#CCCCCCCCCCCCCCCC
(1687890531.476341) can1 680#1EFFE5
(1687890531.476495) can1 201#CCC6CCCCCCCCCCCC
(1687890531.486525) can1 200#07CC909005070808
(1687890531.653759) can1 500#454C495448494F4E
(1687890531.660952) can1 501#32434E46322E3335
(1687890531.666504) can1 502#0C04F42A050042
(1687890531.676663) can1 503#00712701281B
(1687890531.686603) can1 504#0000000E004F
(1687890531.696572) can1 505#000000D200000083
(1687890531.706645) can1 506#5C001200E60023
(1687890531.716626) can1 507#10000F19120C
(1687890531.726568) can1 508#0091051B0806
(1687890532.457485) can1 203#CCCCC9C9CCCCCCCC
(1687890532.457775) can1 1806E5F4#0498009401000000
(1687890532.459215) can1 681#00000000010000
(1687890532.467267) can1 680#25FF5C
(1687890532.467470) can1 202#CCCCCCCCCCCCCCCC
(1687890532.477283) can1 680#1EFFE5
(1687890532.477483) can1 201#CCC6CCCCCCCCCCCC
(1687890532.487424) can1 200#08CC919105070808
(1687890532.654741) can1 500#454C495448494F4E
(1687890532.661966) can1 501#32434E46322E3335
(1687890532.662505) can0 064#1A
(1687890532.664072) can0 064#33
(1687890532.666190) can0 064#37
(1687890532.667493) can1 502#0C04F52A050042
(1687890532.667970) can0 064#42
(1687890532.670060) can0 064#44
(1687890532.675330) can0 0C8#1A
(1687890532.676846) can0 0CD#010001240126
(1687890532.677381) can0 0C8#33
(1687890532.677562) can0 0CD#0F000024221C
(1687890532.677645) can1 503#00712701281B
(1687890532.678326) can0 0C8#37
(1687890532.678453) can0 0CD#01C4000000
(1687890532.680643) can0 0C8#42
(1687890532.680769) can0 0CD#00
(1687890532.682436) can0 0C8#44
(1687890532.682502) can0 0CD#01
(1687890532.687579) can1 504#0000000E004F
(1687890532.697565) can1 505#000000D200000083
(1687890532.707623) can1 506#5C001200E60023
(1687890532.717539) can1 507#10000F19120C
(1687890532.727615) can1 508#0091051B0806
(1687890533.451750) can1 680#48FF0C
(1687890533.451851) can1 204#CCCCCCCCFFFFFFFF
(1687890533.458304) can1 1806E5F4#0498009401000000
(1687890533.458430) can1 203#CCCCC9C9CCCCCCCC
(1687890533.459465) can1 681#00000000010000
(1687890533.468009) can1 680#25FF5C
(1687890533.468193) can1 202#CCCCCCCCCCCCCCCC
(1687890533.477994) can1 680#1EFFE5
(1687890533.478194) can1 201#CCC9CCCCCCCCCCCC
(1687890533.488119) can1 200#09CC919105070808
(1687890533.655515) can1 500#454C495448494F4E
(1687890533.662761) can1 501#32434E46322E3335
(1687890533.668241) can1 502#0C04F62A050042
(1687890533.678393) can1 503#00712813281B
(1687890533.688293) can1 504#0000000E004F
(1687890533.698280) can1 505#000000D200000083
(1687890533.708349) can1 506#5C001200E60023
(1687890533.718322) can1 507#10000F19120C
(1687890533.728252) can1 508#0091051B0806
(1687890534.452485) can1 680#48FF0C
(1687890534.452702) can1 204#CCCCCCCCFFFFFFFF
(1687890534.459050) can1 1806E5F4#0498009401000000
(1687890534.459228) can1 203#CCCCC9C9CCCCCCCC
(1687890534.460700) can1 681#00000000010000
(1687890534.468865) can1 680#25FF5C
(1687890534.469038) can1 202#CCCCCCCCCCCCCCCC
(1687890534.478872) can1 680#1EFFE5
(1687890534.479039) can1 201#CCC9CCCCCCCCCCCC
(1687890534.488961) can1 200#0ACC919105070808
(1687890534.656432) can1 500#454C495448494F4E
(1687890534.658131) can0 064#1A
(1687890534.662261) can0 064#33
(1687890534.663592) can1 501#32434E46322E3335
(1687890534.665421) can0 064#37
(1687890534.668177) can0 064#42
(1687890534.669053) can1 502#0C04F72A050042
(1687890534.670644) can0 064#44
(1687890534.673389) can0 0C8#1A
(1687890534.674266) can0 0C8#33
(1687890534.674852) can0 0CD#00000121011A
(1687890534.674916) can0 0CD#0C000024211C
(1687890534.677384) can0 0C8#37
(1687890534.677520) can0 0CD#0167000000
(1687890534.679238) can1 503#00712813281B
(1687890534.679945) can0 0C8#42
(1687890534.680027) can0 0CD#00
(1687890534.680763) can0 0C8#44
(1687890534.680811) can0 0CD#01
(1687890534.689173) can1 504#0000000E004F
(1687890534.699107) can1 505#000000D200000083
(1687890534.709184) can1 506#5C001200E60023
(1687890534.719076) can1 507#10000F19120C
(1687890534.729121) can1 508#0091051B0806
(1687890535.453363) can1 680#48FF0C
(1687890535.453548) can1 204#CCCCCCCCFFFFFFFF
(1687890535.459886) can1 1806E5F4#0498009401000000
(1687890535.460079) can1 203#CCCCC9C9CCCCCCCC
(1687890535.461402) can1 681#00000000010000
(1687890535.469674) can1 680#25FF5C
(1687890535.469884) can1 202#CCCCCCCCCCCCCCCC
(1687890535.479705) can1 680#1EFFE5
(1687890535.479891) can1 201#CCC9CCCCCCCCCCCC
(1687890535.489795) can1 200#0BCC909005070808
(1687890535.657200) can1 500#454C495448494F4E
(1687890535.664367) can1 501#32434E46322E3335
(1687890535.669936) can1 502#0C04F82A050042
(1687890535.680084) can1 503#00712813281B
(1687890535.689977) can1 504#0000000E004F
(1687890535.700210) can1 505#000000D200000083
(1687890535.710007) can1 506#5C001200E60023
(1687890535.729937) can1 508#0091051B0806
(1687890536.454306) can1 680#48FF0C
(1687890536.454506) can1 204#CCCCCCCCFFFFFFFF
(1687890536.460835) can1 1806E5F4#0498009401000000
(1687890536.461042) can1 203#CCCCC9C9CCCCCCCC
(1687890536.462573) can1 681#00000000010000
(1687890536.470668) can1 680#25FF5C
(1687890536.470844) can1 202#CCCCCCCCCCCCCCCC
(1687890536.480660) can1 680#1EFFE5
(1687890536.480864) can1 201#CCC9CCCCCCCCCCCC
(1687890536.490794) can1 200#0CCC929205070808
(1687890536.658133) can1 500#454C495448494F4E
(1687890536.665354) can1 501#32434E46322E3335
(1687890536.669189) can0 064#1A
(1687890536.670427) can0 064#33
(1687890536.670891) can1 502#0C04F92A050042
(1687890536.672918) can0 064#37
(1687890536.675073) can0 064#42
(1687890536.678965) can0 0C8#1A
(1687890536.680139) can0 064#44
(1687890536.680353) can0 0C8#33
(1687890536.680456) can0 0CD#00000121011A
(1687890536.680556) can0 0CD#0C010024211C
(1687890536.681049) can1 503#00712813281B
(1687890536.686336) can0 0C8#42
(1687890536.686386) can0 0CD#00
(1687890536.688540) can0 0CD#01
(1687890536.688643) can0 0C8#44
(1687890536.691027) can1 504#0000000E004F
(1687890536.694865) can0 0C8#37
(1687890536.695024) can0 0CD#0132010000
(1687890536.700949) can1 505#000000D200000083
(1687890536.711003) can1 506#5C001200E60023
(1687890536.720882) can1 507#10000F19120C
(1687890536.730888) can1 508#0091051B0806
(1687890537.455125) can1 680#48FF0C
(1687890537.455340) can1 204#CCCCCCCCFFFFFFFF
(1687890537.461682) can1 1806E5F4#0498009401000000
(1687890537.461896) can1 203#CCCCC9C9CCCCCCCC
(1687890537.462812) can1 681#00000000010000
(1687890537.471449) can1 680#25FF5C
(1687890537.471689) can1 202#CCCCCCCCCCCCCCCC
(1687890537.481537) can1 680#1EFFE5
(1687890537.481672) can1 201#CCC6CCCCCCCCCCCC
(1687890537.491603) can1 200#0DCC919105070808
(1687890537.658933) can1 500#454C495448494F4E
(1687890537.666130) can1 501#32434E46322E3335
(1687890537.671681) can1 502#0C04FA2A050042
(1687890537.681836) can1 503#00712701281B
(1687890537.691768) can1 504#0003000E004F
(1687890537.701728) can1 505#000000D200000083
(1687890537.711818) can1 506#5C001200E60023
(1687890537.721716) can1 507#10000F19120C
(1687890537.731795) can1 508#0091051B0806
(1687890538.456063) can1 680#48FF0C
(1687890538.456205) can1 204#CCCCCCCCFFFFFFFF
(1687890538.462480) can1 1806E5F4#0498009401000000
(1687890538.462690) can1 203#CCCCC6C6CCCCCCCC
(1687890538.464477) can1 681#00000000010000
(1687890538.472287) can1 680#25FF5C
(1687890538.472481) can1 202#CCCCCCCCCCCCCCCC
(1687890538.482346) can1 680#1EFFE5
(1687890538.482509) can1 201#CCC6CCCCCCCCCCCC
(1687890538.492441) can1 200#0ECC8F8F05070808
(1687890538.659854) can1 500#454C495448494F4E
(1687890538.666143) can0 064#1A
(1687890538.667038) can1 501#32434E46322E3335
(1687890538.668771) can0 064#33
(1687890538.671456) can0 064#37
(1687890538.672521) can1 502#0C04FB2A050042
(1687890538.673097) can0 064#42
(1687890538.675535) can0 064#44
(1687890538.682803) can1 503#00712701281B
(1687890538.683736) can0 0C8#1A
(1687890538.685339) can0 0CD#020101011810
(1687890538.686710) can0 0C8#33
(1687890538.686856) can0 0CD#0E010024211C
(1687890538.689415) can0 0C8#37
(1687890538.689478) can0 0CD#010D2D0000
(1687890538.692645) can1 504#0009000E004F
(1687890538.694220) can0 0CD#00
(1687890538.694319) can0 0C8#42
(1687890538.695486) can0 0C8#44
(1687890538.695569) can0 0CD#01
(1687890538.702667) can1 505#000000D200000083
(1687890538.712705) can1 506#5C001200E60023
(1687890538.722601) can1 507#10000F19120C
(1687890538.732552) can1 508#0091051B0806
(1687890539.456929) can1 680#48FF0C
(1687890539.457149) can1 204#CCC9C9C9FFFFFFFF
(1687890539.463340) can1 1806E5F4#0498009401000000
(1687890539.463520) can1 203#CCCCC6C6CCCCCCCC
(1687890539.464681) can1 681#00000000010000
(1687890539.473100) can1 680#25FF5C
(1687890539.473322) can1 202#CCCCCCCCCCCCCCC9
(1687890539.483105) can1 680#1EFFE5
(1687890539.483314) can1 201#CCC6CCCCCCCCCCCC
(1687890539.493228) can1 200#0FC98F8F05070808
(1687890539.660602) can1 500#454C495448494F4E
(1687890539.667772) can1 501#32434E46322E3335
(1687890539.673324) can1 502#0C04FC2A050042
(1687890539.683496) can1 503#007027132818
(1687890539.693474) can1 504#000D000E004F
(1687890539.703388) can1 505#000000D200000083
(1687890539.713448) can1 506#5C001200E60023
(1687890539.723351) can1 507#10000F19120C
(1687890539.733337) can1 508#0091051B0806
(1687890540.457755) can1 680#48FF0C
(1687890540.457937) can1 204#CCCCCCCCFFFFFFFF
(1687890540.464135) can1 1806E5F4#0498009401000000
(1687890540.464293) can1 203#CCCCC9C6CCCCCCCC
(1687890540.465833) can1 681#00000000010000
(1687890540.473966) can1 680#25FF5C
(1687890540.474106) can1 202#CCCCCCCCCCCCCCCC
(1687890540.483928) can1 680#1EFFE5
(1687890540.484099) can1 201#CCC6CCCCCCCCCCCC
(1687890540.494006) can1 200#10CC909005070808
(1687890540.661377) can1 500#454C495448494F4E
(1687890540.664631) can0 064#1A
(1687890540.665648) can0 064#33
(1687890540.668756) can1 501#32434E46322E3335
(1687890540.671101) can0 064#37
(1687890540.673223) can0 064#42
(1687890540.674276) can1 502#0C04FD2A050042
(1687890540.677775) can0 064#44
(1687890540.681107) can0 0C8#1A
(1687890540.682601) can0 0CD#01011C0D1A01
(1687890540.684314) can1 503#007027132818
(1687890540.685907) can0 0C8#33
(1687890540.685978) can0 0CD#0B010024211C
(1687890540.688304) can0 0C8#37
(1687890540.688375) can0 0CD#0104100000
(1687890540.692174) can0 0C8#42
(1687890540.692227) can0 0CD#00
(1687890540.694191) can1 504#0007000E004F
(1687890540.694098) can0 0C8#44
(1687890540.694165) can0 0CD#01
(1687890540.704185) can1 505#000000D200000083
(1687890540.714239) can1 506#5C001200E60023
(1687890540.724147) can1 507#10000F19120C
(1687890540.734178) can1 508#0091051B0806
(1687890541.458569) can1 680#48FF0C
(1687890541.458742) can1 204#CCCCCCCCFFFFFFFF
(1687890541.464907) can1 1806E5F4#0498009401000000
(1687890541.465086) can1 203#CCCCC9C6CCCCCCCC
(1687890541.466506) can1 681#00000000010000
(1687890541.474688) can1 680#25FF5C
(1687890541.474897) can1 202#CCCCCCCCCCCCCCCC
(1687890541.484706) can1 680#1EFFE5
(1687890541.484898) can1 201#CCC6CCCCCCCCCCCC
(1687890541.494830) can1 200#11CC909005070808
(1687890541.662211) can1 500#454C495448494F4E
(1687890541.669437) can1 501#32434E46322E3335
(1687890541.674935) can1 502#0C04FE2A050042
(1687890541.685084) can1 503#00702713281B
(1687890541.695011) can1 504#0007000E004F
(1687890541.705029) can1 505#000000D200000083
(1687890541.715047) can1 506#5C001200E60023
(1687890541.724962) can1 507#10000F19120C
(1687890541.734936) can1 508#0091051B0806
(1687890542.459346) can1 680#48FF0C
(1687890542.459525) can1 204#CCCCCCCCFFFFFFFF
(1687890542.465712) can1 1806E5F4#0498008B01000000
(1687890542.465913) can1 203#CCCCC9C6CCCCCCCC
(1687890542.467784) can1 681#00000000010000
(1687890542.475510) can1 680#25FF5D
(1687890542.475696) can1 202#CCCCCCCCCCCCCCCC
(1687890542.485529) can1 680#1EFFE5
(1687890542.485696) can1 201#CCC6CCCCCCCCCCCC
(1687890542.495624) can1 200#12C9909005070808
(1687890542.663061) can1 500#454C495448494F4E
(1687890542.667083) can0 064#1A
(1687890542.669819) can0 064#33
(1687890542.670162) can1 501#32434E46322E3335
(1687890542.671359) can0 064#37
(1687890542.672898) can0 064#42
(1687890542.674770) can0 064#44
(1687890542.675717) can1 502#0C04FF2A050042
(1687890542.676541) can0 0C8#1A
(1687890542.678103) can0 0CD#0B0101010816
(1687890542.678859) can0 0C8#33
(1687890542.678977) can0 0CD#0B010023211C
(1687890542.680640) can0 0C8#37
(1687890542.680788) can0 0CD#0102100000
(1687890542.681190) can0 0C8#42
(1687890542.681298) can0 0CD#00
(1687890542.683950) can0 0C8#44
(1687890542.684070) can0 0CD#01
(1687890542.685859) can1 503#00702713281B
(1687890542.695791) can1 504#0007000D004F
(1687890542.705813) can1 505#000000D200000083
(1687890542.715829) can1 506#5D001000E60023
(1687890542.725734) can1 507#10000F19120C
(1687890542.735743) can1 508#0091051B0806
(1687890543.460170) can1 680#48FF0C
(1687890543.460361) can1 204#CCCCCCCCFFFFFFFF
(1687890543.466477) can1 1806E5F4#0498008B01000000
(1687890543.466683) can1 203#CCCCC9C6CCCCCCCC
(1687890543.467845) can1 681#00000000010000
(1687890543.476274) can1 680#25FF5D
(1687890543.476483) can1 202#CCCCCCCCCCCCCCCC
(1687890543.486297) can1 680#1EFFE5
(1687890543.486494) can1 201#CCC6CCCCCCCCCCCC
(1687890543.496410) can1 200#13C68F8F07070808
(1687890543.663755) can1 500#454C495448494F4E
(1687890543.670929) can1 501#32434E46322E3335
(1687890543.676494) can1 502#0C05002A050042
(1687890543.686643) can1 503#00702713281B
(1687890543.696565) can1 504#0007000D004F
(1687890543.706556) can1 505#000000D200000083
(1687890543.716628) can1 506#5D001000E60023
(1687890543.726520) can1 507#10000F19120C
(1687890543.736558) can1 508#0091051B0806
(1687890544.460904) can1 680#48FF0C
(1687890544.461093) can1 204#CCCCCCCCFFFFFFFF
(1687890544.467302) can1 1806E5F4#0498008B01000000
(1687890544.467456) can1 203#CCCCC9C6CCCCCCCC
(1687890544.469523) can1 681#00000000010000
(1687890544.477066) can1 680#25FF5D
(1687890544.477259) can1 202#CCCCCCCCCCCCCCCC
(1687890544.487080) can1 680#1EFFE5
(1687890544.487272) can1 201#CCC6CCCCCCCCCCCC
(1687890544.497220) can1 200#14CC8F8F050F0808
(1687890544.664624) can1 500#454C495448494F4E
(1687890544.669028) can0 064#1A
(1687890544.671564) can0 064#33
